! Mini-Circuits								
! S2P DATA File Format								
! Type: LOW PASS FILTER								
! Model: LFCG-490+								
! All S Parameters are in dB deg format								
! TEST CONDITIONS: INPUT POWER = 0 dBm @ Temperature = +25 deg C
# MHz S dB R 50
!Frequency        S11 dB  S11 DEG   S21 dB  S21 DEG   S12 dB  S12 DEG   S22 dB  S22 DEG
  10.0000     -3.293962E+001  3.461115E+001 -2.860679E-001 -3.754348E+000 -2.860017E-001 -3.739191E+000 -3.402551E+001  3.071773E+001
  13.0000     -3.275097E+001  2.566106E+001 -2.842462E-001 -4.800062E+000 -2.823716E-001 -4.797001E+000 -3.293576E+001  2.763651E+001
  16.0000     -3.256628E+001  2.161431E+001 -2.843010E-001 -5.886236E+000 -2.836387E-001 -5.896879E+000 -3.276640E+001  2.900287E+001
  19.0000     -3.238514E+001  2.253402E+001 -2.865414E-001 -6.994161E+000 -2.859749E-001 -7.010570E+000 -3.244616E+001  3.066906E+001
  20.0000     -3.230116E+001  2.346747E+001 -2.876489E-001 -7.366035E+000 -2.874097E-001 -7.379303E+000 -3.231669E+001  3.151378E+001
  40.0000     -2.829925E+001  4.060893E+001 -3.106486E-001 -1.467912E+001 -3.102733E-001 -1.467877E+001 -2.762015E+001  3.597628E+001
  60.0000     -2.602374E+001  4.272781E+001 -3.349528E-001 -2.188392E+001 -3.335871E-001 -2.189597E+001 -2.440326E+001  2.478266E+001
  80.0000     -2.459396E+001  4.572542E+001 -3.534501E-001 -2.914903E+001 -3.528779E-001 -2.915699E+001 -2.294464E+001  1.748274E+001
 100.0000     -2.400519E+001  4.909530E+001 -3.715532E-001 -3.644251E+001 -3.732809E-001 -3.645002E+001 -2.185101E+001  9.082078E+000
 120.0000     -2.333749E+001  4.861113E+001 -3.962273E-001 -4.381711E+001 -3.963348E-001 -4.382652E+001 -2.068652E+001  1.859163E+000
 140.0000     -2.253831E+001  4.483657E+001 -4.248865E-001 -5.126970E+001 -4.264834E-001 -5.127084E+001 -1.915393E+001 -7.143010E+000
 160.0000     -2.137261E+001  4.098342E+001 -4.510626E-001 -5.875163E+001 -4.517040E-001 -5.875351E+001 -1.786259E+001 -1.709476E+001
 180.0000     -2.044454E+001  4.004498E+001 -4.770195E-001 -6.637121E+001 -4.791623E-001 -6.637470E+001 -1.691730E+001 -2.745301E+001
 200.0000     -1.968474E+001  4.184494E+001 -5.010245E-001 -7.414185E+001 -5.033013E-001 -7.413694E+001 -1.645793E+001 -3.815688E+001
 220.0000     -1.926411E+001  4.320792E+001 -5.318252E-001 -8.208056E+001 -5.329741E-001 -8.208501E+001 -1.624486E+001 -4.792659E+001
 240.0000     -1.903892E+001  4.232511E+001 -5.685267E-001 -9.019645E+001 -5.701525E-001 -9.019973E+001 -1.595656E+001 -5.800288E+001
 260.0000     -1.888976E+001  3.754913E+001 -6.114900E-001 -9.848685E+001 -6.103684E-001 -9.848950E+001 -1.562479E+001 -6.842165E+001
 280.0000     -1.858352E+001  3.318723E+001 -6.540025E-001 -1.069724E+002 -6.549289E-001 -1.069773E+002 -1.550469E+001 -7.944246E+001
 300.0000     -1.823692E+001  3.024254E+001 -6.910190E-001 -1.157402E+002 -6.914037E-001 -1.157424E+002 -1.578376E+001 -9.096729E+001
 320.0000     -1.794590E+001  2.922628E+001 -7.356485E-001 -1.248083E+002 -7.364419E-001 -1.248083E+002 -1.642045E+001 -1.027831E+002
 340.0000     -1.803830E+001  2.901520E+001 -7.777985E-001 -1.341912E+002 -7.778099E-001 -1.341885E+002 -1.758060E+001 -1.152930E+002
 360.0000     -1.869265E+001  2.754513E+001 -8.217965E-001 -1.439966E+002 -8.227056E-001 -1.439942E+002 -1.894414E+001 -1.275170E+002
 380.0000     -1.975499E+001  2.515904E+001 -8.719214E-001 -1.543049E+002 -8.717791E-001 -1.543028E+002 -2.061146E+001 -1.402811E+002
 400.0000     -2.088593E+001  2.438612E+001 -9.334219E-001 -1.651331E+002 -9.312392E-001 -1.651457E+002 -2.322332E+001 -1.564845E+002
 420.0000     -2.186241E+001  2.700814E+001 -1.001457E+000 -1.765807E+002 -1.000308E+000 -1.765821E+002 -2.853526E+001  1.739818E+002
 440.0000     -2.260161E+001  3.516151E+001 -1.082624E+000  1.712623E+002 -1.081740E+000  1.712566E+002 -3.355411E+001  8.086564E+001
 460.0000     -2.272195E+001  4.922081E+001 -1.185224E+000  1.582395E+002 -1.184178E+000  1.582372E+002 -2.611837E+001  1.966149E+001
 480.0000     -2.200460E+001  6.274478E+001 -1.310595E+000  1.442774E+002 -1.311154E+000  1.442726E+002 -2.189762E+001 -6.804529E+000
 490.0000     -2.142844E+001  6.684828E+001 -1.387269E+000  1.368684E+002 -1.387423E+000  1.368598E+002 -2.050194E+001 -1.615094E+001
 500.0000     -2.076365E+001  6.855759E+001 -1.470998E+000  1.291345E+002 -1.471696E+000  1.291261E+002 -1.937409E+001 -2.470706E+001
 510.0000     -2.012065E+001  6.732803E+001 -1.566235E+000  1.210490E+002 -1.568101E+000  1.210489E+002 -1.839545E+001 -3.300338E+001
 520.0000     -1.973800E+001  6.395465E+001 -1.668949E+000  1.125777E+002 -1.670297E+000  1.125779E+002 -1.755553E+001 -4.013752E+001
 530.0000     -1.952600E+001  5.844044E+001 -1.783713E+000  1.036679E+002 -1.785199E+000  1.036660E+002 -1.686903E+001 -4.732629E+001
 540.0000     -1.950165E+001  5.027946E+001 -1.917012E+000  9.423026E+001 -1.918237E+000  9.422987E+001 -1.632896E+001 -5.404222E+001
 550.0000     -1.977807E+001  3.908515E+001 -2.071270E+000  8.418747E+001 -2.072169E+000  8.419002E+001 -1.590627E+001 -5.994185E+001
 560.0000     -2.040141E+001  2.344633E+001 -2.246725E+000  7.343879E+001 -2.248996E+000  7.343531E+001 -1.556542E+001 -6.490099E+001
 570.0000     -2.109503E+001 -8.096363E-001 -2.465282E+000  6.181663E+001 -2.466468E+000  6.181488E+001 -1.510077E+001 -6.852914E+001
 580.0000     -2.097096E+001 -3.643378E+001 -2.749890E+000  4.919636E+001 -2.751210E+000  4.919674E+001 -1.432312E+001 -7.173166E+001
 590.0000     -1.854364E+001 -7.503477E+001 -3.141132E+000  3.539819E+001 -3.142174E+000  3.539512E+001 -1.309521E+001 -7.602490E+001
 600.0000     -1.488387E+001 -1.049124E+002 -3.700634E+000  2.034047E+001 -3.702075E+000  2.034190E+001 -1.149532E+001 -8.347723E+001
 605.0000     -1.309588E+001 -1.169551E+002 -4.066377E+000  1.236922E+001 -4.066456E+000  1.237182E+001 -1.063957E+001 -8.874040E+001
 610.0000     -1.144421E+001 -1.276976E+002 -4.500492E+000  4.141882E+000 -4.501087E+000  4.145936E+000 -9.790966E+000 -9.496620E+001
 615.0000     -9.951361E+000 -1.375482E+002 -5.012084E+000 -4.292923E+000 -5.012343E+000 -4.281412E+000 -8.973395E+000 -1.020369E+002
 620.0000     -8.624596E+000 -1.467652E+002 -5.610341E+000 -1.285991E+001 -5.609497E+000 -1.285280E+001 -8.209995E+000 -1.098518E+002
 625.0000     -7.464108E+000 -1.554933E+002 -6.301376E+000 -2.150810E+001 -6.298806E+000 -2.149457E+001 -7.517959E+000 -1.182503E+002
 630.0000     -6.457222E+000 -1.638141E+002 -7.083780E+000 -3.013591E+001 -7.082053E+000 -3.012082E+001 -6.904401E+000 -1.270653E+002
 635.0000     -5.592766E+000 -1.717302E+002 -7.961730E+000 -3.866069E+001 -7.959754E+000 -3.864164E+001 -6.375202E+000 -1.361695E+002
 640.0000     -4.858483E+000 -1.792665E+002 -8.927092E+000 -4.701026E+001 -8.925241E+000 -4.699012E+001 -5.925053E+000 -1.454178E+002
 645.0000     -4.238090E+000  1.736003E+002 -9.975256E+000 -5.510515E+001 -9.973462E+000 -5.508107E+001 -5.546214E+000 -1.546762E+002
 650.0000     -3.719340E+000  1.668671E+002 -1.110023E+001 -6.288293E+001 -1.109739E+001 -6.286046E+001 -5.230231E+000 -1.638489E+002
 655.0000     -3.286697E+000  1.605464E+002 -1.229009E+001 -7.030336E+001 -1.228807E+001 -7.028194E+001 -4.965689E+000 -1.728686E+002
 660.0000     -2.926103E+000  1.546211E+002 -1.353802E+001 -7.737445E+001 -1.353561E+001 -7.734992E+001 -4.744030E+000  1.783006E+002
 665.0000     -2.623545E+000  1.490678E+002 -1.483490E+001 -8.409956E+001 -1.483476E+001 -8.407660E+001 -4.557311E+000  1.696750E+002
 670.0000     -2.369502E+000  1.438865E+002 -1.617747E+001 -9.046245E+001 -1.617596E+001 -9.043058E+001 -4.393403E+000  1.613128E+002
 675.0000     -2.154264E+000  1.390886E+002 -1.755407E+001 -9.644157E+001 -1.755406E+001 -9.641605E+001 -4.246816E+000  1.532249E+002
 680.0000     -1.971943E+000  1.346428E+002 -1.896483E+001 -1.020548E+002 -1.896410E+001 -1.020236E+002 -4.110011E+000  1.454422E+002
 685.0000     -1.815975E+000  1.305022E+002 -2.040366E+001 -1.073279E+002 -2.040231E+001 -1.072978E+002 -3.979914E+000  1.379517E+002
 690.0000     -1.681090E+000  1.266141E+002 -2.187059E+001 -1.123001E+002 -2.186824E+001 -1.122761E+002 -3.854976E+000  1.307424E+002
 695.0000     -1.561929E+000  1.229754E+002 -2.336338E+001 -1.169922E+002 -2.336149E+001 -1.169732E+002 -3.735077E+000  1.238164E+002
 700.0000     -1.455167E+000  1.195797E+002 -2.487843E+001 -1.213960E+002 -2.488064E+001 -1.213606E+002 -3.617146E+000  1.171767E+002
 705.0000     -1.357388E+000  1.164246E+002 -2.642180E+001 -1.254983E+002 -2.642376E+001 -1.254880E+002 -3.500662E+000  1.108109E+002
 710.0000     -1.269983E+000  1.134427E+002 -2.799201E+001 -1.293857E+002 -2.799178E+001 -1.293389E+002 -3.384409E+000  1.047244E+002
 715.0000     -1.193055E+000  1.106144E+002 -2.958791E+001 -1.329736E+002 -2.958999E+001 -1.329406E+002 -3.268723E+000  9.888825E+001
 720.0000     -1.124408E+000  1.079263E+002 -3.122258E+001 -1.363864E+002 -3.122606E+001 -1.363059E+002 -3.156100E+000  9.329099E+001
 725.0000     -1.062661E+000  1.053834E+002 -3.289252E+001 -1.394715E+002 -3.289909E+001 -1.394668E+002 -3.049817E+000  8.791905E+001
 730.0000     -1.008922E+000  1.029673E+002 -3.462442E+001 -1.423501E+002 -3.462494E+001 -1.422944E+002 -2.949621E+000  8.276624E+001
 735.0000     -9.597254E-001  1.006600E+002 -3.639640E+001 -1.449000E+002 -3.638940E+001 -1.448508E+002 -2.851016E+000  7.783582E+001
 740.0000     -9.163892E-001  9.845342E+001 -3.821257E+001 -1.470616E+002 -3.822147E+001 -1.470388E+002 -2.750120E+000  7.310667E+001
 745.0000     -8.757147E-001  9.633295E+001 -4.012109E+001 -1.489327E+002 -4.012279E+001 -1.489107E+002 -2.650747E+000  6.856101E+001
 750.0000     -8.353707E-001  9.429691E+001 -4.209340E+001 -1.502427E+002 -4.210866E+001 -1.503284E+002 -2.558334E+000  6.416855E+001
 755.0000     -7.962726E-001  9.233466E+001 -4.419540E+001 -1.511093E+002 -4.421209E+001 -1.511155E+002 -2.473352E+000  5.992529E+001
 760.0000     -7.611632E-001  9.043483E+001 -4.643952E+001 -1.512092E+002 -4.642204E+001 -1.509216E+002 -2.392535E+000  5.583620E+001
 765.0000     -7.357304E-001  8.858347E+001 -4.881528E+001 -1.499611E+002 -4.882872E+001 -1.500677E+002 -2.311581E+000  5.191395E+001
 770.0000     -7.120629E-001  8.679440E+001 -5.143181E+001 -1.470335E+002 -5.142456E+001 -1.473017E+002 -2.232248E+000  4.813536E+001
 775.0000     -6.888212E-001  8.508024E+001 -5.418337E+001 -1.411422E+002 -5.412783E+001 -1.412415E+002 -2.154504E+000  4.447737E+001
 780.0000     -6.608484E-001  8.342375E+001 -5.701123E+001 -1.305555E+002 -5.696700E+001 -1.313061E+002 -2.079570E+000  4.094476E+001
 785.0000     -6.297178E-001  8.181578E+001 -5.955321E+001 -1.142565E+002 -5.945013E+001 -1.142925E+002 -2.007317E+000  3.754564E+001
 790.0000     -5.955155E-001  8.023465E+001 -6.095266E+001 -9.185713E+001 -6.079348E+001 -9.172341E+001 -1.937681E+000  3.427665E+001
 795.0000     -5.640752E-001  7.869583E+001 -6.074142E+001 -7.140154E+001 -6.063928E+001 -7.180220E+001 -1.869481E+000  3.113486E+001
 800.0000     -5.375836E-001  7.721541E+001 -5.965724E+001 -5.852557E+001 -5.967776E+001 -5.886230E+001 -1.804966E+000  2.808907E+001
 805.0000     -5.147629E-001  7.579103E+001 -5.878196E+001 -5.114091E+001 -5.875544E+001 -5.067100E+001 -1.742441E+000  2.514637E+001
 810.0000     -4.905521E-001  7.442200E+001 -5.789170E+001 -4.616051E+001 -5.788913E+001 -4.636386E+001 -1.681898E+000  2.229764E+001
 815.0000     -4.616262E-001  7.308949E+001 -5.733013E+001 -4.323856E+001 -5.730729E+001 -4.384846E+001 -1.620776E+000  1.954225E+001
 820.0000     -4.332996E-001  7.177550E+001 -5.684873E+001 -4.289834E+001 -5.679046E+001 -4.306482E+001 -1.563967E+000  1.687578E+001
 825.0000     -4.130452E-001  7.045689E+001 -5.648596E+001 -4.260354E+001 -5.665518E+001 -4.260406E+001 -1.510411E+000  1.429765E+001
 830.0000     -3.974211E-001  6.915181E+001 -5.631119E+001 -4.256567E+001 -5.638059E+001 -4.248372E+001 -1.461090E+000  1.179369E+001
 835.0000     -3.839310E-001  6.789775E+001 -5.620254E+001 -4.274548E+001 -5.627859E+001 -4.331197E+001 -1.413001E+000  9.371568E+000
 840.0000     -3.637499E-001  6.672449E+001 -5.615989E+001 -4.397784E+001 -5.618238E+001 -4.427713E+001 -1.365000E+000  7.028396E+000
 845.0000     -3.441433E-001  6.558841E+001 -5.619934E+001 -4.493785E+001 -5.616176E+001 -4.508329E+001 -1.319489E+000  4.745490E+000
 850.0000     -3.267439E-001  6.444923E+001 -5.619535E+001 -4.635268E+001 -5.615494E+001 -4.626854E+001 -1.276200E+000  2.518205E+000
 855.0000     -3.134609E-001  6.329814E+001 -5.625819E+001 -4.789083E+001 -5.627776E+001 -4.813642E+001 -1.237785E+000  3.446500E-001
 860.0000     -3.000102E-001  6.216975E+001 -5.637456E+001 -4.926961E+001 -5.632220E+001 -4.908163E+001 -1.202560E+000 -1.781110E+000
 865.0000     -2.860660E-001  6.107728E+001 -5.644993E+001 -5.063786E+001 -5.647143E+001 -5.071342E+001 -1.170691E+000 -3.860126E+000
 870.0000     -2.741858E-001  6.002700E+001 -5.660619E+001 -5.213424E+001 -5.661860E+001 -5.215763E+001 -1.139886E+000 -5.881684E+000
 875.0000     -2.669229E-001  5.900309E+001 -5.677304E+001 -5.383916E+001 -5.671986E+001 -5.390539E+001 -1.108195E+000 -7.839352E+000
 880.0000     -2.626259E-001  5.799527E+001 -5.683409E+001 -5.532489E+001 -5.684610E+001 -5.551764E+001 -1.076658E+000 -9.743579E+000
 885.0000     -2.547284E-001  5.698885E+001 -5.696337E+001 -5.709965E+001 -5.694523E+001 -5.713978E+001 -1.044476E+000 -1.159294E+001
 890.0000     -2.421507E-001  5.597974E+001 -5.716743E+001 -5.860880E+001 -5.716309E+001 -5.864825E+001 -1.015815E+000 -1.340662E+001
 895.0000     -2.239736E-001  5.499155E+001 -5.721624E+001 -6.049320E+001 -5.718725E+001 -6.001447E+001 -9.902561E-001 -1.516910E+001
 900.0000     -2.067802E-001  5.406063E+001 -5.734400E+001 -6.130557E+001 -5.739566E+001 -6.199058E+001 -9.658821E-001 -1.688935E+001
 920.0000     -1.631167E-001  5.049532E+001 -5.781698E+001 -6.813892E+001 -5.783102E+001 -6.774420E+001 -8.658803E-001 -2.339307E+001
 940.0000     -1.368085E-001  4.700599E+001 -5.820118E+001 -7.390891E+001 -5.809121E+001 -7.437484E+001 -7.828645E-001 -2.927122E+001
 960.0000     -1.185058E-001  4.366704E+001 -5.834626E+001 -7.965702E+001 -5.838890E+001 -7.921044E+001 -7.090311E-001 -3.470948E+001
 980.0000     -1.111398E-001  4.052189E+001 -5.870264E+001 -8.359698E+001 -5.865478E+001 -8.356093E+001 -6.620489E-001 -3.982158E+001
1000.0000     -9.584145E-002  3.754028E+001 -5.888929E+001 -8.769078E+001 -5.895929E+001 -8.770426E+001 -6.167704E-001 -4.445805E+001
1020.0000     -4.400226E-002  3.484509E+001 -5.925988E+001 -9.053645E+001 -5.923471E+001 -9.091120E+001 -5.756742E-001 -4.881520E+001
1040.0000      2.777234E-002  3.234631E+001 -5.969493E+001 -9.427903E+001 -5.963418E+001 -9.394273E+001 -5.369946E-001 -5.278887E+001
1060.0000      6.198290E-002  2.999570E+001 -6.012251E+001 -9.654230E+001 -6.007604E+001 -9.589862E+001 -5.038353E-001 -5.659455E+001
1080.0000      6.756260E-002  2.741042E+001 -6.084311E+001 -9.781187E+001 -6.071615E+001 -9.817195E+001 -4.755368E-001 -6.012882E+001
1100.0000      4.542181E-002  2.486705E+001 -6.168206E+001 -9.915718E+001 -6.171391E+001 -9.871822E+001 -4.668080E-001 -6.349961E+001
1120.0000      3.431150E-002  2.247848E+001 -6.300069E+001 -9.969229E+001 -6.309747E+001 -1.003617E+002 -4.485487E-001 -6.666338E+001
1140.0000      6.503124E-002  2.019001E+001 -6.457430E+001 -9.845648E+001 -6.456811E+001 -9.810615E+001 -4.260371E-001 -6.956303E+001
1160.0000      1.147721E-001  1.811738E+001 -6.656939E+001 -9.466960E+001 -6.657755E+001 -9.575063E+001 -4.030699E-001 -7.233906E+001
1180.0000      1.600758E-001  1.615153E+001 -6.948553E+001 -8.595849E+001 -6.902466E+001 -8.652972E+001 -3.817743E-001 -7.492675E+001
1200.0000      1.482763E-001  1.397660E+001 -7.301368E+001 -6.812303E+001 -7.275047E+001 -6.687599E+001 -3.620529E-001 -7.747693E+001
1220.0000      1.196042E-001  1.198446E+001 -7.365629E+001 -2.489388E+001 -7.379773E+001 -2.455729E+001 -3.601183E-001 -7.990323E+001
1240.0000      9.227725E-002  9.965308E+000 -7.076482E+001  7.189588E+000 -7.069286E+001  8.657886E+000 -3.529715E-001 -8.215942E+001
1260.0000      9.245998E-002  8.186269E+000 -6.699897E+001  2.378407E+001 -6.690551E+001  2.389735E+001 -3.415997E-001 -8.433170E+001
1280.0000      1.291655E-001  6.490586E+000 -6.420616E+001  2.939416E+001 -6.424927E+001  2.954592E+001 -3.287944E-001 -8.640218E+001
1300.0000      1.553292E-001  4.813165E+000 -6.207011E+001  3.150920E+001 -6.201778E+001  3.290559E+001 -3.141609E-001 -8.838071E+001
1320.0000      1.545320E-001  3.124585E+000 -6.025239E+001  3.240347E+001 -6.022343E+001  3.248484E+001 -3.140804E-001 -9.032153E+001
1340.0000      1.246972E-001  1.349112E+000 -5.878284E+001  3.305669E+001 -5.877045E+001  3.322706E+001 -3.054029E-001 -9.214512E+001
1360.0000      1.045979E-001 -2.885698E-001 -5.729790E+001  3.257931E+001 -5.729980E+001  3.271003E+001 -2.968669E-001 -9.386234E+001
1380.0000      1.011268E-001 -1.755090E+000 -5.623197E+001  3.276311E+001 -5.627088E+001  3.273511E+001 -2.922916E-001 -9.555070E+001
1400.0000      1.270123E-001 -3.194686E+000 -5.519798E+001  3.173649E+001 -5.526062E+001  3.225356E+001 -2.808976E-001 -9.723519E+001
1420.0000      1.328546E-001 -4.657733E+000 -5.430317E+001  3.116487E+001 -5.431061E+001  3.100075E+001 -2.742364E-001 -9.883153E+001
1440.0000      1.228116E-001 -6.136245E+000 -5.343451E+001  3.022051E+001 -5.349977E+001  3.027959E+001 -2.749787E-001 -1.003368E+002
1460.0000      9.790082E-002 -7.818513E+000 -5.276022E+001  2.910552E+001 -5.275406E+001  2.894575E+001 -2.673071E-001 -1.018315E+002
1480.0000      7.312492E-002 -9.320695E+000 -5.212776E+001  2.809958E+001 -5.207473E+001  2.819168E+001 -2.669733E-001 -1.031804E+002
1500.0000      8.241814E-002 -1.072587E+001 -5.152661E+001  2.719477E+001 -5.152213E+001  2.721693E+001 -2.567743E-001 -1.045570E+002
1520.0000      1.014950E-001 -1.212995E+001 -5.093454E+001  2.624934E+001 -5.097477E+001  2.610105E+001 -2.482117E-001 -1.059175E+002
1540.0000      1.105428E-001 -1.341905E+001 -5.042603E+001  2.517617E+001 -5.041692E+001  2.507685E+001 -2.404180E-001 -1.072723E+002
1560.0000      9.406637E-002 -1.469969E+001 -4.997341E+001  2.427565E+001 -4.995003E+001  2.414581E+001 -2.397599E-001 -1.085277E+002
1580.0000      6.857111E-002 -1.606961E+001 -4.954293E+001  2.303111E+001 -4.953317E+001  2.300501E+001 -2.395784E-001 -1.097319E+002
1600.0000      4.854080E-002 -1.742733E+001 -4.917254E+001  2.198816E+001 -4.915887E+001  2.208558E+001 -2.343562E-001 -1.108777E+002
1620.0000      3.858588E-002 -1.868728E+001 -4.877698E+001  2.116260E+001 -4.880695E+001  2.115058E+001 -2.317532E-001 -1.119730E+002
1640.0000      4.622579E-002 -2.000702E+001 -4.847258E+001  2.020991E+001 -4.843825E+001  2.001646E+001 -2.294887E-001 -1.131562E+002
1660.0000      4.867863E-002 -2.125302E+001 -4.816149E+001  1.905134E+001 -4.811349E+001  1.905641E+001 -2.180537E-001 -1.142195E+002
1680.0000      3.932151E-002 -2.239449E+001 -4.783960E+001  1.802677E+001 -4.784845E+001  1.807041E+001 -2.228235E-001 -1.152851E+002
1700.0000      1.302804E-002 -2.354843E+001 -4.756908E+001  1.721544E+001 -4.759457E+001  1.710850E+001 -2.160460E-001 -1.162603E+002
1720.0000      1.213179E-002 -2.468147E+001 -4.732566E+001  1.650920E+001 -4.734727E+001  1.644405E+001 -2.228652E-001 -1.172497E+002
1740.0000      1.240840E-002 -2.584090E+001 -4.707582E+001  1.555687E+001 -4.706153E+001  1.562943E+001 -2.077343E-001 -1.182336E+002
1760.0000      2.489757E-002 -2.694875E+001 -4.684370E+001  1.458850E+001 -4.684100E+001  1.478874E+001 -2.151319E-001 -1.191265E+002
1780.0000      2.388448E-002 -2.811444E+001 -4.663602E+001  1.367950E+001 -4.663158E+001  1.375073E+001 -2.062067E-001 -1.200556E+002
1800.0000      3.058567E-002 -2.920756E+001 -4.642919E+001  1.283736E+001 -4.642030E+001  1.282065E+001 -1.986208E-001 -1.209305E+002
1820.0000      2.360502E-002 -3.020282E+001 -4.624932E+001  1.215757E+001 -4.625166E+001  1.206533E+001 -2.072199E-001 -1.218164E+002
