! Mini-Circuits								
! S2P DATA File Format								
! Type: LOW PASS FILTER								
! Model: LFCG-490+								
! All S Parameters are in dB deg format								
! TEST CONDITIONS: INPUT POWER = 0 dBm @ Temperature = +125 deg C
# MHz S dB R 50
!Frequency        S11 dB  S11 DEG   S21 dB  S21 DEG   S12 dB  S12 DEG   S22 dB  S22 DEG
  10.0000     -3.182849E+001  2.622493E+001 -3.223914E-001 -3.674227E+000 -3.270047E-001 -3.649173E+000 -3.245974E+001  2.420436E+001
  13.0000     -3.166803E+001  2.138801E+001 -3.214916E-001 -4.721524E+000 -3.219871E-001 -4.717852E+000 -3.164610E+001  2.340641E+001
  16.0000     -3.132692E+001  1.979851E+001 -3.214806E-001 -5.817394E+000 -3.222899E-001 -5.821294E+000 -3.141502E+001  2.536886E+001
  19.0000     -3.106015E+001  2.145951E+001 -3.221115E-001 -6.928271E+000 -3.238139E-001 -6.937168E+000 -3.117490E+001  2.777193E+001
  20.0000     -3.092688E+001  2.244007E+001 -3.226846E-001 -7.296100E+000 -3.252233E-001 -7.302188E+000 -3.099808E+001  2.921513E+001
  40.0000     -2.713039E+001  3.849617E+001 -3.452503E-001 -1.460939E+001 -3.469880E-001 -1.459812E+001 -2.656745E+001  3.606125E+001
  60.0000     -2.479776E+001  4.070102E+001 -3.711693E-001 -2.178460E+001 -3.716320E-001 -2.178468E+001 -2.340784E+001  2.649818E+001
  80.0000     -2.337146E+001  4.269038E+001 -3.928382E-001 -2.900846E+001 -3.946770E-001 -2.901461E+001 -2.193394E+001  2.014329E+001
 100.0000     -2.273369E+001  4.473041E+001 -4.155858E-001 -3.626514E+001 -4.196129E-001 -3.626875E+001 -2.085175E+001  1.230788E+001
 120.0000     -2.209184E+001  4.320852E+001 -4.443328E-001 -4.358591E+001 -4.470770E-001 -4.359304E+001 -1.970702E+001  5.281509E+000
 140.0000     -2.132267E+001  3.898321E+001 -4.778035E-001 -5.096591E+001 -4.813628E-001 -5.096992E+001 -1.827590E+001 -3.594116E+000
 160.0000     -2.028146E+001  3.496006E+001 -5.072852E-001 -5.838131E+001 -5.100366E-001 -5.837738E+001 -1.706851E+001 -1.338968E+001
 180.0000     -1.947857E+001  3.353514E+001 -5.353969E-001 -6.592581E+001 -5.400590E-001 -6.592233E+001 -1.619000E+001 -2.355352E+001
 200.0000     -1.889301E+001  3.470309E+001 -5.620654E-001 -7.361499E+001 -5.661309E-001 -7.360664E+001 -1.575601E+001 -3.397284E+001
 220.0000     -1.860633E+001  3.557586E+001 -5.948740E-001 -8.147750E+001 -5.986989E-001 -8.147655E+001 -1.556857E+001 -4.357206E+001
 240.0000     -1.847328E+001  3.444049E+001 -6.345193E-001 -8.950670E+001 -6.389032E-001 -8.950409E+001 -1.531579E+001 -5.351920E+001
 260.0000     -1.833096E+001  2.982104E+001 -6.809410E-001 -9.769647E+001 -6.827513E-001 -9.769511E+001 -1.503357E+001 -6.385432E+001
 280.0000     -1.806910E+001  2.582796E+001 -7.257822E-001 -1.060737E+002 -7.288813E-001 -1.060731E+002 -1.495368E+001 -7.468504E+001
 300.0000     -1.778290E+001  2.336891E+001 -7.649461E-001 -1.147326E+002 -7.682731E-001 -1.147266E+002 -1.525470E+001 -8.589202E+001
 320.0000     -1.757312E+001  2.290728E+001 -8.125933E-001 -1.236812E+002 -8.169284E-001 -1.236745E+002 -1.590699E+001 -9.732063E+001
 340.0000     -1.770410E+001  2.315738E+001 -8.594447E-001 -1.329357E+002 -8.620937E-001 -1.329240E+002 -1.707223E+001 -1.093035E+002
 360.0000     -1.833174E+001  2.206637E+001 -9.092850E-001 -1.425905E+002 -9.129167E-001 -1.425789E+002 -1.844338E+001 -1.210800E+002
 380.0000     -1.929212E+001  2.004095E+001 -9.659160E-001 -1.527228E+002 -9.685151E-001 -1.527166E+002 -2.011728E+001 -1.334071E+002
 400.0000     -2.028874E+001  1.970469E+001 -1.034370E+000 -1.633523E+002 -1.035161E+000 -1.633564E+002 -2.273616E+001 -1.487031E+002
 420.0000     -2.108425E+001  2.256345E+001 -1.110318E+000 -1.745625E+002 -1.112139E+000 -1.745585E+002 -2.813066E+001 -1.747041E+002
 440.0000     -2.165057E+001  3.002194E+001 -1.200009E+000  1.735590E+002 -1.202435E+000  1.735569E+002 -3.502564E+001  9.022395E+001
 460.0000     -2.176260E+001  4.223720E+001 -1.311964E+000  1.608647E+002 -1.313945E+000  1.608684E+002 -2.643619E+001  2.345337E+001
 480.0000     -2.127032E+001  5.421157E+001 -1.447137E+000  1.472910E+002 -1.450245E+000  1.472953E+002 -2.190487E+001 -1.705770E+000
 490.0000     -2.083008E+001  5.823055E+001 -1.528925E+000  1.401064E+002 -1.531901E+000  1.401079E+002 -2.043766E+001 -1.057155E+001
 500.0000     -2.028637E+001  6.041547E+001 -1.618065E+000  1.326245E+002 -1.620822E+000  1.326222E+002 -1.926014E+001 -1.878371E+001
 510.0000     -1.968877E+001  6.017641E+001 -1.719139E+000  1.248199E+002 -1.722978E+000  1.248265E+002 -1.824479E+001 -2.684487E+001
 520.0000     -1.929011E+001  5.785286E+001 -1.827681E+000  1.166661E+002 -1.831888E+000  1.166724E+002 -1.737218E+001 -3.392166E+001
 530.0000     -1.901492E+001  5.369959E+001 -1.948451E+000  1.081133E+002 -1.952187E+000  1.081179E+002 -1.665227E+001 -4.118476E+001
 540.0000     -1.887055E+001  4.747899E+001 -2.087084E+000  9.909068E+001 -2.090406E+000  9.909457E+001 -1.608782E+001 -4.816972E+001
 550.0000     -1.896874E+001  3.904100E+001 -2.244951E+000  8.953174E+001 -2.248919E+000  8.954021E+001 -1.566214E+001 -5.459156E+001
 560.0000     -1.938441E+001  2.777084E+001 -2.421950E+000  7.935857E+001 -2.425787E+000  7.936330E+001 -1.536141E+001 -6.037958E+001
 570.0000     -2.006624E+001  1.105839E+001 -2.633984E+000  6.842630E+001 -2.637814E+000  6.843667E+001 -1.505054E+001 -6.511254E+001
 580.0000     -2.086759E+001 -1.464438E+001 -2.899204E+000  5.664293E+001 -2.903214E+000  5.665263E+001 -1.457693E+001 -6.917303E+001
 590.0000     -2.042494E+001 -5.132557E+001 -3.246285E+000  4.383213E+001 -3.249925E+000  4.384464E+001 -1.377580E+001 -7.330178E+001
 600.0000     -1.773505E+001 -8.799528E+001 -3.721681E+000  2.989812E+001 -3.725902E+000  2.990651E+001 -1.257977E+001 -7.928920E+001
 605.0000     -1.597473E+001 -1.030134E+002 -4.025486E+000  2.250936E+001 -4.029146E+000  2.252358E+001 -1.187574E+001 -8.348455E+001
 610.0000     -1.420580E+001 -1.158487E+002 -4.381748E+000  1.485693E+001 -4.386224E+000  1.486871E+001 -1.113365E+001 -8.856593E+001
 615.0000     -1.253164E+001 -1.270706E+002 -4.800038E+000  6.959274E+000 -4.804729E+000  6.976565E+000 -1.038121E+001 -9.449757E+001
 620.0000     -1.099648E+001 -1.371550E+002 -5.288943E+000 -1.134739E+000 -5.293235E+000 -1.123030E+000 -9.642651E+000 -1.012660E+002
 625.0000     -9.620052E+000 -1.464551E+002 -5.856725E+000 -9.390488E+000 -5.860780E+000 -9.380634E+000 -8.941466E+000 -1.087557E+002
 630.0000     -8.400162E+000 -1.551903E+002 -6.508190E+000 -1.774038E+001 -6.512761E+000 -1.772642E+001 -8.297713E+000 -1.168461E+002
 635.0000     -7.329520E+000 -1.634513E+002 -7.248843E+000 -2.610777E+001 -7.253088E+000 -2.608640E+001 -7.719028E+000 -1.254182E+002
 640.0000     -6.399556E+000 -1.713076E+002 -8.075254E+000 -3.441276E+001 -8.079588E+000 -3.439820E+001 -7.207947E+000 -1.343390E+002
 645.0000     -5.598019E+000 -1.787794E+002 -8.988458E+000 -4.258254E+001 -8.992566E+000 -4.256635E+001 -6.764708E+000 -1.434516E+002
 650.0000     -4.913990E+000  1.741175E+002 -9.983286E+000 -5.053688E+001 -9.988517E+000 -5.052478E+001 -6.384720E+000 -1.526491E+002
 655.0000     -4.333503E+000  1.674006E+002 -1.105385E+001 -5.821113E+001 -1.105917E+001 -5.820023E+001 -6.058754E+000 -1.618283E+002
 660.0000     -3.842759E+000  1.610616E+002 -1.219242E+001 -6.559521E+001 -1.219793E+001 -6.558276E+001 -5.782263E+000 -1.709303E+002
 665.0000     -3.427411E+000  1.550924E+002 -1.339003E+001 -7.267049E+001 -1.339673E+001 -7.265436E+001 -5.546114E+000 -1.799063E+002
 670.0000     -3.075160E+000  1.495072E+002 -1.464218E+001 -7.939123E+001 -1.464776E+001 -7.937459E+001 -5.338944E+000  1.713276E+002
 675.0000     -2.775655E+000  1.443135E+002 -1.593726E+001 -8.574860E+001 -1.594321E+001 -8.573260E+001 -5.153020E+000  1.627925E+002
 680.0000     -2.521640E+000  1.394953E+002 -1.727246E+001 -9.172586E+001 -1.727903E+001 -9.170921E+001 -4.981531E+000  1.545487E+002
 685.0000     -2.303536E+000  1.350010E+002 -1.864154E+001 -9.736299E+001 -1.864774E+001 -9.734303E+001 -4.819403E+000  1.465907E+002
 690.0000     -2.116198E+000  1.307893E+002 -2.004092E+001 -1.026880E+002 -2.004794E+001 -1.026683E+002 -4.664717E+000  1.389193E+002
 695.0000     -1.952415E+000  1.268547E+002 -2.146973E+001 -1.077099E+002 -2.147810E+001 -1.076848E+002 -4.516634E+000  1.315428E+002
 700.0000     -1.805263E+000  1.231880E+002 -2.292455E+001 -1.124270E+002 -2.293065E+001 -1.123966E+002 -4.370967E+000  1.244770E+002
 705.0000     -1.672822E+000  1.197868E+002 -2.439876E+001 -1.168232E+002 -2.440995E+001 -1.168271E+002 -4.227232E+000  1.177035E+002
 710.0000     -1.554883E+000  1.165797E+002 -2.590308E+001 -1.209874E+002 -2.591099E+001 -1.209595E+002 -4.084725E+000  1.112317E+002
 715.0000     -1.451056E+000  1.135464E+002 -2.743169E+001 -1.248855E+002 -2.743971E+001 -1.248721E+002 -3.944471E+000  1.050488E+002
 720.0000     -1.359707E+000  1.106744E+002 -2.898865E+001 -1.285401E+002 -2.899478E+001 -1.285248E+002 -3.806736E+000  9.912828E+001
 725.0000     -1.276873E+000  1.079601E+002 -3.057701E+001 -1.319444E+002 -3.058760E+001 -1.319137E+002 -3.676131E+000  9.345700E+001
 730.0000     -1.204551E+000  1.053930E+002 -3.220566E+001 -1.350654E+002 -3.221544E+001 -1.350798E+002 -3.552088E+000  8.802686E+001
 735.0000     -1.139141E+000  1.029423E+002 -3.387562E+001 -1.379077E+002 -3.388453E+001 -1.379458E+002 -3.430796E+000  8.284207E+001
 740.0000     -1.080680E+000  1.006098E+002 -3.558393E+001 -1.405245E+002 -3.559022E+001 -1.405155E+002 -3.308229E+000  7.788499E+001
 745.0000     -1.025397E+000  9.838324E+001 -3.733103E+001 -1.427874E+002 -3.734266E+001 -1.427768E+002 -3.188675E+000  7.313010E+001
 750.0000     -9.717876E-001  9.624516E+001 -3.916159E+001 -1.446911E+002 -3.916501E+001 -1.446892E+002 -3.075968E+000  6.854283E+001
 755.0000     -9.209169E-001  9.419175E+001 -4.104141E+001 -1.462214E+002 -4.105013E+001 -1.461474E+002 -2.971565E+000  6.411908E+001
 760.0000     -8.757451E-001  9.220431E+001 -4.301252E+001 -1.472199E+002 -4.302028E+001 -1.471791E+002 -2.871974E+000  5.986683E+001
 765.0000     -8.409819E-001  9.027422E+001 -4.511361E+001 -1.475148E+002 -4.512069E+001 -1.474785E+002 -2.772903E+000  5.579340E+001
 770.0000     -8.083343E-001  8.841018E+001 -4.732737E+001 -1.470908E+002 -4.732794E+001 -1.470155E+002 -2.677189E+000  5.187445E+001
 775.0000     -7.772374E-001  8.662396E+001 -4.967995E+001 -1.451882E+002 -4.969297E+001 -1.449929E+002 -2.582520E+000  4.809056E+001
 780.0000     -7.417018E-001  8.490383E+001 -5.220249E+001 -1.413788E+002 -5.218969E+001 -1.412287E+002 -2.493006E+000  4.443993E+001
 785.0000     -7.033813E-001  8.323820E+001 -5.483227E+001 -1.344616E+002 -5.476414E+001 -1.345642E+002 -2.406117E+000  4.093039E+001
 790.0000     -6.629259E-001  8.160197E+001 -5.732884E+001 -1.233279E+002 -5.740956E+001 -1.228659E+002 -2.321801E+000  3.756236E+001
 795.0000     -6.252853E-001  8.001124E+001 -5.940568E+001 -1.067690E+002 -5.944164E+001 -1.062424E+002 -2.240646E+000  3.432391E+001
 800.0000     -5.935745E-001  7.847718E+001 -6.032153E+001 -8.709890E+001 -6.038824E+001 -8.673811E+001 -2.163299E+000  3.119197E+001
 805.0000     -5.663913E-001  7.700082E+001 -6.012983E+001 -6.935042E+001 -6.014366E+001 -6.991257E+001 -2.089129E+000  2.816687E+001
 810.0000     -5.379347E-001  7.558427E+001 -5.943427E+001 -5.798033E+001 -5.947224E+001 -5.819152E+001 -2.016476E+000  2.524314E+001
 815.0000     -5.048727E-001  7.420382E+001 -5.864684E+001 -5.074237E+001 -5.859864E+001 -5.156702E+001 -1.944301E+000  2.242039E+001
 820.0000     -4.724451E-001  7.285691E+001 -5.790002E+001 -4.737831E+001 -5.792735E+001 -4.637530E+001 -1.877462E+000  1.969180E+001
 825.0000     -4.470208E-001  7.150608E+001 -5.750003E+001 -4.441718E+001 -5.745897E+001 -4.444904E+001 -1.813498E+000  1.705075E+001
 830.0000     -4.267684E-001  7.017176E+001 -5.711014E+001 -4.298680E+001 -5.711811E+001 -4.357330E+001 -1.754115E+000  1.449486E+001
 835.0000     -4.077124E-001  6.889137E+001 -5.679412E+001 -4.286777E+001 -5.682957E+001 -4.325342E+001 -1.696975E+000  1.202245E+001
 840.0000     -3.846277E-001  6.768462E+001 -5.662156E+001 -4.277568E+001 -5.670860E+001 -4.317162E+001 -1.641059E+000  9.628902E+000
 845.0000     -3.615967E-001  6.651473E+001 -5.663947E+001 -4.327536E+001 -5.651833E+001 -4.318994E+001 -1.586939E+000  7.302718E+000
 850.0000     -3.410755E-001  6.534354E+001 -5.649825E+001 -4.397204E+001 -5.647502E+001 -4.425583E+001 -1.536241E+000  5.032823E+000
 855.0000     -3.256295E-001  6.415932E+001 -5.656700E+001 -4.519496E+001 -5.655511E+001 -4.469238E+001 -1.490281E+000  2.819849E+000
 860.0000     -3.105256E-001  6.299779E+001 -5.658824E+001 -4.616467E+001 -5.658928E+001 -4.635229E+001 -1.447792E+000  6.600233E-001
 865.0000     -2.943769E-001  6.187871E+001 -5.673175E+001 -4.761837E+001 -5.665489E+001 -4.753717E+001 -1.409367E+000 -1.452240E+000
 870.0000     -2.801699E-001  6.079953E+001 -5.678331E+001 -4.905726E+001 -5.679679E+001 -4.902506E+001 -1.371997E+000 -3.507601E+000
 875.0000     -2.715610E-001  5.974656E+001 -5.690329E+001 -5.059206E+001 -5.686848E+001 -5.037561E+001 -1.334331E+000 -5.498585E+000
 880.0000     -2.654617E-001  5.870905E+001 -5.697565E+001 -5.206914E+001 -5.694660E+001 -5.180318E+001 -1.296060E+000 -7.425652E+000
 885.0000     -2.556236E-001  5.767817E+001 -5.710200E+001 -5.367110E+001 -5.714472E+001 -5.385906E+001 -1.258715E+000 -9.307339E+000
 890.0000     -2.401493E-001  5.664569E+001 -5.723417E+001 -5.499651E+001 -5.721442E+001 -5.557226E+001 -1.224205E+000 -1.114462E+001
 895.0000     -2.203001E-001  5.563958E+001 -5.741611E+001 -5.653545E+001 -5.739674E+001 -5.700535E+001 -1.193556E+000 -1.293564E+001
 900.0000     -2.015425E-001  5.468636E+001 -5.747841E+001 -5.816079E+001 -5.753240E+001 -5.827849E+001 -1.163785E+000 -1.468155E+001
 920.0000     -1.551342E-001  5.103423E+001 -5.792452E+001 -6.452698E+001 -5.796670E+001 -6.492249E+001 -1.045639E+000 -2.126744E+001
 940.0000     -1.263332E-001  4.746658E+001 -5.829350E+001 -7.089767E+001 -5.840008E+001 -7.098971E+001 -9.462008E-001 -2.721644E+001
 960.0000     -1.065703E-001  4.407198E+001 -5.857127E+001 -7.634592E+001 -5.860157E+001 -7.647863E+001 -8.591309E-001 -3.271049E+001
 980.0000     -9.913992E-002  4.087850E+001 -5.891462E+001 -8.177706E+001 -5.887988E+001 -8.156063E+001 -8.015319E-001 -3.787165E+001
1000.0000     -8.524137E-002  3.785271E+001 -5.904535E+001 -8.531362E+001 -5.908241E+001 -8.538741E+001 -7.467639E-001 -4.255679E+001
1020.0000     -3.868419E-002  3.511502E+001 -5.943092E+001 -8.893795E+001 -5.927757E+001 -8.951310E+001 -6.962638E-001 -4.695784E+001
1040.0000      3.025427E-002  3.258262E+001 -5.957506E+001 -9.210958E+001 -5.958679E+001 -9.189181E+001 -6.497246E-001 -5.096816E+001
1060.0000      6.236652E-002  3.020888E+001 -6.010278E+001 -9.445337E+001 -6.003019E+001 -9.488384E+001 -6.096013E-001 -5.481630E+001
1080.0000      6.548495E-002  2.759636E+001 -6.060778E+001 -9.634079E+001 -6.064821E+001 -9.697782E+001 -5.764233E-001 -5.838227E+001
1100.0000      4.192922E-002  2.503482E+001 -6.144190E+001 -9.814096E+001 -6.130950E+001 -9.851400E+001 -5.632586E-001 -6.179205E+001
1120.0000      2.990261E-002  2.263298E+001 -6.234091E+001 -9.900765E+001 -6.235727E+001 -9.920970E+001 -5.408678E-001 -6.499104E+001
1140.0000      5.873366E-002  2.033247E+001 -6.353520E+001 -9.896574E+001 -6.353011E+001 -9.896710E+001 -5.137442E-001 -6.792620E+001
1160.0000      1.079662E-001  1.824100E+001 -6.532586E+001 -9.763811E+001 -6.515362E+001 -9.680078E+001 -4.868348E-001 -7.073978E+001
1180.0000      1.524373E-001  1.625964E+001 -6.727110E+001 -9.150275E+001 -6.711920E+001 -9.174109E+001 -4.624732E-001 -7.335352E+001
1200.0000      1.405753E-001  1.407467E+001 -6.990494E+001 -8.054639E+001 -6.954673E+001 -7.996596E+001 -4.396932E-001 -7.593456E+001
1220.0000      1.108836E-001  1.207591E+001 -7.217686E+001 -5.611142E+001 -7.292622E+001 -5.800243E+001 -4.347940E-001 -7.839233E+001
1240.0000      8.230136E-002  1.005187E+001 -7.266061E+001 -1.675472E+001 -7.248974E+001 -1.824369E+001 -4.260255E-001 -8.068416E+001
1260.0000      8.139890E-002  8.272141E+000 -6.982313E+001  9.302581E+000 -6.964655E+001  8.554598E+000 -4.127886E-001 -8.288528E+001
1280.0000      1.166130E-001  6.568234E+000 -6.650100E+001  2.024383E+001 -6.665577E+001  1.971898E+001 -3.970219E-001 -8.498520E+001
1300.0000      1.411718E-001  4.886046E+000 -6.380126E+001  2.665333E+001 -6.402164E+001  2.694394E+001 -3.805689E-001 -8.699326E+001
1320.0000      1.397711E-001  3.198832E+000 -6.195960E+001  2.998036E+001 -6.185807E+001  2.867440E+001 -3.783304E-001 -8.896082E+001
1340.0000      1.096540E-001  1.433922E+000 -6.018982E+001  2.967296E+001 -6.003361E+001  3.007423E+001 -3.678066E-001 -9.080936E+001
1360.0000      9.019018E-002 -1.910760E-001 -5.877842E+001  3.070336E+001 -5.875585E+001  3.066154E+001 -3.580713E-001 -9.255894E+001
1380.0000      8.609147E-002 -1.643765E+000 -5.749126E+001  3.071005E+001 -5.751311E+001  3.094761E+001 -3.523278E-001 -9.427943E+001
1400.0000      1.122548E-001 -3.063676E+000 -5.634000E+001  3.104081E+001 -5.633936E+001  3.071474E+001 -3.391391E-001 -9.598725E+001
1420.0000      1.195020E-001 -4.506269E+000 -5.536065E+001  3.020143E+001 -5.530269E+001  3.023771E+001 -3.304017E-001 -9.760710E+001
1440.0000      1.104767E-001 -5.963312E+000 -5.445939E+001  2.933218E+001 -5.447007E+001  2.947939E+001 -3.302030E-001 -9.913963E+001
1460.0000      8.733550E-002 -7.617556E+000 -5.366737E+001  2.843401E+001 -5.362928E+001  2.850090E+001 -3.212207E-001 -1.006619E+002
1480.0000      6.491770E-002 -9.083483E+000 -5.298674E+001  2.781482E+001 -5.294174E+001  2.788051E+001 -3.204921E-001 -1.020409E+002
1500.0000      7.857412E-002 -1.045418E+001 -5.228448E+001  2.680979E+001 -5.227795E+001  2.686624E+001 -3.095218E-001 -1.034462E+002
1520.0000      1.008246E-001 -1.182530E+001 -5.168013E+001  2.591081E+001 -5.168193E+001  2.599929E+001 -2.994812E-001 -1.048329E+002
1540.0000      1.141284E-001 -1.307712E+001 -5.115253E+001  2.499855E+001 -5.114886E+001  2.517629E+001 -2.908289E-001 -1.062159E+002
1560.0000      1.020016E-001 -1.432536E+001 -5.065105E+001  2.402544E+001 -5.062656E+001  2.393048E+001 -2.887958E-001 -1.075007E+002
1580.0000      8.046380E-002 -1.567148E+001 -5.016009E+001  2.314428E+001 -5.016493E+001  2.312302E+001 -2.869417E-001 -1.087308E+002
1600.0000      6.361983E-002 -1.700690E+001 -4.976854E+001  2.217946E+001 -4.974789E+001  2.229201E+001 -2.814015E-001 -1.099016E+002
1620.0000      5.679309E-002 -1.824763E+001 -4.935033E+001  2.121571E+001 -4.936279E+001  2.126168E+001 -2.780526E-001 -1.110289E+002
1640.0000      6.899922E-002 -1.954246E+001 -4.898835E+001  2.035981E+001 -4.900792E+001  2.040335E+001 -2.746997E-001 -1.122406E+002
1660.0000      7.499884E-002 -2.076247E+001 -4.863518E+001  1.932017E+001 -4.866356E+001  1.936055E+001 -2.630199E-001 -1.133335E+002
1680.0000      6.790746E-002 -2.187690E+001 -4.833932E+001  1.855803E+001 -4.833805E+001  1.845830E+001 -2.660133E-001 -1.144253E+002
1700.0000      4.302632E-002 -2.300037E+001 -4.806514E+001  1.755372E+001 -4.804439E+001  1.755044E+001 -2.579362E-001 -1.154310E+002
1720.0000      4.423051E-002 -2.410501E+001 -4.776450E+001  1.681713E+001 -4.779251E+001  1.677833E+001 -2.640754E-001 -1.164485E+002
1740.0000      4.571575E-002 -2.523770E+001 -4.749486E+001  1.589515E+001 -4.751810E+001  1.586077E+001 -2.481408E-001 -1.174592E+002
1760.0000      5.917777E-002 -2.631360E+001 -4.727617E+001  1.498683E+001 -4.725775E+001  1.516101E+001 -2.552689E-001 -1.183866E+002
1780.0000      6.020908E-002 -2.744873E+001 -4.702773E+001  1.423850E+001 -4.703014E+001  1.415672E+001 -2.464774E-001 -1.193467E+002
1800.0000      6.933185E-002 -2.851334E+001 -4.681755E+001  1.331230E+001 -4.682363E+001  1.347428E+001 -2.385665E-001 -1.202487E+002
1820.0000      6.486238E-002 -2.948881E+001 -4.663789E+001  1.248405E+001 -4.663830E+001  1.247416E+001 -2.465043E-001 -1.211642E+002
