! Mini-Circuits								
! S2P DATA File Format								
! Type: LOW PASS FILTER								
! Model: LFCG-490+								
! All S Parameters are in dB deg format								
! TEST CONDITIONS: INPUT POWER = 0 dBm @ Temperature = -55 deg C
# MHz S dB R 50
!Frequency        S11 dB  S11 DEG   S21 dB  S21 DEG   S12 dB  S12 DEG   S22 dB  S22 DEG
  10.0000     -3.435246E+001  4.670082E+001 -2.444593E-001 -3.834522E+000 -2.429070E-001 -3.832142E+000 -3.559066E+001  4.491541E+001
  13.0000     -3.420046E+001  2.841582E+001 -2.452881E-001 -4.808379E+000 -2.395854E-001 -4.841441E+000 -3.443814E+001  3.137271E+001
  16.0000     -3.426236E+001  1.829813E+001 -2.437667E-001 -5.865182E+000 -2.384560E-001 -5.918456E+000 -3.455809E+001  2.815814E+001
  19.0000     -3.448582E+001  1.576231E+001 -2.442448E-001 -6.963371E+000 -2.399600E-001 -7.022754E+000 -3.472665E+001  2.820572E+001
  20.0000     -3.459411E+001  1.624788E+001 -2.442640E-001 -7.322822E+000 -2.407876E-001 -7.390081E+000 -3.470160E+001  2.917735E+001
  40.0000     -3.083404E+001  4.101215E+001 -2.580669E-001 -1.461899E+001 -2.541782E-001 -1.468186E+001 -2.988384E+001  3.753218E+001
  60.0000     -2.847971E+001  4.355633E+001 -2.757887E-001 -2.188511E+001 -2.686021E-001 -2.193651E+001 -2.619361E+001  2.328968E+001
  80.0000     -2.670532E+001  4.872451E+001 -2.873086E-001 -2.922156E+001 -2.801998E-001 -2.924652E+001 -2.453045E+001  1.573076E+001
 100.0000     -2.603456E+001  5.372048E+001 -2.965372E-001 -3.658580E+001 -2.944842E-001 -3.660123E+001 -2.318359E+001  6.367744E+000
 120.0000     -2.509814E+001  5.418816E+001 -3.147973E-001 -4.403786E+001 -3.100811E-001 -4.405349E+001 -2.181335E+001 -7.132384E-001
 140.0000     -2.411461E+001  5.031566E+001 -3.377489E-001 -5.158224E+001 -3.349057E-001 -5.158660E+001 -1.997275E+001 -9.634282E+000
 160.0000     -2.262759E+001  4.587766E+001 -3.597489E-001 -5.915884E+001 -3.552577E-001 -5.915948E+001 -1.848927E+001 -1.984813E+001
 180.0000     -2.146482E+001  4.471110E+001 -3.812083E-001 -6.687336E+001 -3.796766E-001 -6.687626E+001 -1.737295E+001 -3.060925E+001
 200.0000     -2.043566E+001  4.652470E+001 -4.023831E-001 -7.474287E+001 -4.001847E-001 -7.473257E+001 -1.679967E+001 -4.192113E+001
 220.0000     -1.984970E+001  4.783777E+001 -4.287374E-001 -8.277530E+001 -4.260062E-001 -8.277869E+001 -1.650627E+001 -5.210389E+001
 240.0000     -1.949936E+001  4.690547E+001 -4.608626E-001 -9.099588E+001 -4.579460E-001 -9.100053E+001 -1.616669E+001 -6.260331E+001
 260.0000     -1.932347E+001  4.205780E+001 -4.980297E-001 -9.941444E+001 -4.932317E-001 -9.941850E+001 -1.581606E+001 -7.330652E+001
 280.0000     -1.893538E+001  3.759980E+001 -5.375616E-001 -1.080305E+002 -5.332266E-001 -1.080358E+002 -1.567260E+001 -8.481712E+001
 300.0000     -1.851719E+001  3.436424E+001 -5.700640E-001 -1.169458E+002 -5.664773E-001 -1.169479E+002 -1.595157E+001 -9.699337E+001
 320.0000     -1.813223E+001  3.291697E+001 -6.102841E-001 -1.261634E+002 -6.073039E-001 -1.261682E+002 -1.656854E+001 -1.095203E+002
 340.0000     -1.815216E+001  3.246000E+001 -6.475017E-001 -1.357189E+002 -6.422465E-001 -1.357198E+002 -1.772606E+001 -1.230078E+002
 360.0000     -1.874356E+001  3.077023E+001 -6.852753E-001 -1.457169E+002 -6.815174E-001 -1.457185E+002 -1.913533E+001 -1.360991E+002
 380.0000     -1.979623E+001  2.812153E+001 -7.288499E-001 -1.562537E+002 -7.242027E-001 -1.562533E+002 -2.087890E+001 -1.498810E+002
 400.0000     -2.094053E+001  2.678395E+001 -7.838951E-001 -1.673316E+002 -7.771792E-001 -1.673466E+002 -2.354659E+001 -1.679929E+002
 420.0000     -2.205480E+001  2.892311E+001 -8.447546E-001 -1.790698E+002 -8.392750E-001 -1.790756E+002 -2.861286E+001  1.562900E+002
 440.0000     -2.296140E+001  3.733374E+001 -9.182138E-001  1.684290E+002 -9.135002E-001  1.684168E+002 -3.111736E+001  6.787251E+001
 460.0000     -2.311452E+001  5.298114E+001 -1.014729E+000  1.550005E+002 -1.008632E+000  1.549947E+002 -2.503459E+001  1.408269E+001
 480.0000     -2.216850E+001  6.788187E+001 -1.134220E+000  1.405590E+002 -1.129930E+000  1.405532E+002 -2.128970E+001 -1.366409E+001
 490.0000     -2.144762E+001  7.204054E+001 -1.207559E+000  1.328815E+002 -1.203577E+000  1.328670E+002 -2.002737E+001 -2.361993E+001
 500.0000     -2.067562E+001  7.320825E+001 -1.287792E+000  1.248468E+002 -1.283602E+000  1.248330E+002 -1.901748E+001 -3.256889E+001
 510.0000     -2.000566E+001  7.107219E+001 -1.379828E+000  1.164235E+002 -1.376521E+000  1.164232E+002 -1.814669E+001 -4.111938E+001
 520.0000     -1.965432E+001  6.677314E+001 -1.478906E+000  1.075768E+002 -1.476632E+000  1.075732E+002 -1.741712E+001 -4.833151E+001
 530.0000     -1.952563E+001  5.993835E+001 -1.590828E+000  9.822427E+001 -1.587729E+000  9.822118E+001 -1.684898E+001 -5.535445E+001
 540.0000     -1.965226E+001  4.964497E+001 -1.723048E+000  8.827480E+001 -1.719041E+000  8.827689E+001 -1.640686E+001 -6.152198E+001
 550.0000     -2.014328E+001  3.495384E+001 -1.878983E+000  7.763265E+001 -1.874365E+000  7.763599E+001 -1.602842E+001 -6.649084E+001
 560.0000     -2.091294E+001  1.325940E+001 -2.061516E+000  6.616257E+001 -2.057305E+000  6.615611E+001 -1.564300E+001 -7.008527E+001
 570.0000     -2.109918E+001 -2.034582E+001 -2.298699E+000  5.365882E+001 -2.294001E+000  5.365318E+001 -1.495007E+001 -7.215504E+001
 580.0000     -1.924627E+001 -6.094047E+001 -2.625972E+000  3.997908E+001 -2.621711E+000  3.996967E+001 -1.373586E+001 -7.468928E+001
 590.0000     -1.561638E+001 -9.438216E+001 -3.103075E+000  2.494923E+001 -3.098309E+000  2.493943E+001 -1.201737E+001 -8.008298E+001
 600.0000     -1.194073E+001 -1.192505E+002 -3.810392E+000  8.589265E+000 -3.806761E+000  8.583159E+000 -1.008460E+001 -9.001495E+001
 605.0000     -1.032112E+001 -1.298835E+002 -4.278147E+000 -1.377586E-003 -4.273535E+000 -1.081141E-002 -9.147672E+000 -9.666308E+001
 610.0000     -8.875652E+000 -1.397573E+002 -4.833725E+000 -8.780697E+000 -4.829330E+000 -8.792860E+000 -8.271164E+000 -1.042115E+002
 615.0000     -7.604077E+000 -1.490605E+002 -5.484054E+000 -1.767135E+001 -5.480067E+000 -1.767955E+001 -7.471062E+000 -1.124746E+002
 620.0000     -6.501724E+000 -1.578832E+002 -6.232626E+000 -2.656388E+001 -6.230040E+000 -2.657832E+001 -6.759398E+000 -1.212782E+002
 625.0000     -5.560531E+000 -1.662664E+002 -7.083009E+000 -3.537835E+001 -7.079399E+000 -3.539572E+001 -6.142019E+000 -1.304248E+002
 630.0000     -4.763409E+000 -1.742302E+002 -8.027020E+000 -4.402704E+001 -8.025460E+000 -4.404232E+001 -5.617343E+000 -1.397572E+002
 635.0000     -4.094703E+000  1.782543E+002 -9.062890E+000 -5.242739E+001 -9.061345E+000 -5.243745E+001 -5.181348E+000 -1.491423E+002
 640.0000     -3.537565E+000  1.711762E+002 -1.017828E+001 -6.053193E+001 -1.017642E+001 -6.053971E+001 -4.822206E+000 -1.584756E+002
 645.0000     -3.074203E+000  1.645463E+002 -1.136465E+001 -6.827867E+001 -1.136346E+001 -6.827702E+001 -4.528230E+000 -1.676493E+002
 650.0000     -2.692058E+000  1.583493E+002 -1.261301E+001 -7.562672E+001 -1.261196E+001 -7.563407E+001 -4.286244E+000 -1.766048E+002
 655.0000     -2.377456E+000  1.525791E+002 -1.391415E+001 -8.257786E+001 -1.391309E+001 -8.258894E+001 -4.084827E+000  1.746930E+002
 660.0000     -2.115696E+000  1.472059E+002 -1.526112E+001 -8.915574E+001 -1.526002E+001 -8.916273E+001 -3.916042E+000  1.662465E+002
 665.0000     -1.896186E+000  1.421802E+002 -1.664533E+001 -9.540208E+001 -1.664580E+001 -9.540110E+001 -3.772274E+000  1.580503E+002
 670.0000     -1.711419E+000  1.375104E+002 -1.806533E+001 -1.012662E+002 -1.806372E+001 -1.012778E+002 -3.645431E+000  1.501432E+002
 675.0000     -1.553743E+000  1.331861E+002 -1.951427E+001 -1.068058E+002 -1.951331E+001 -1.068015E+002 -3.528451E+000  1.425249E+002
 680.0000     -1.419580E+000  1.291853E+002 -2.099085E+001 -1.119715E+002 -2.098928E+001 -1.119668E+002 -3.417525E+000  1.352039E+002
 685.0000     -1.303243E+000  1.254523E+002 -2.249131E+001 -1.168238E+002 -2.249043E+001 -1.168229E+002 -3.310349E+000  1.281675E+002
 690.0000     -1.201886E+000  1.219310E+002 -2.401964E+001 -1.214115E+002 -2.401828E+001 -1.214280E+002 -3.207093E+000  1.213972E+002
 695.0000     -1.111879E+000  1.186279E+002 -2.557491E+001 -1.257367E+002 -2.557518E+001 -1.257507E+002 -3.107396E+000  1.148910E+002
 700.0000     -1.028230E+000  1.155450E+002 -2.715666E+001 -1.297754E+002 -2.715804E+001 -1.297767E+002 -3.009778E+000  1.086520E+002
 705.0000     -9.501805E-001  1.126625E+002 -2.876624E+001 -1.335369E+002 -2.877018E+001 -1.335643E+002 -2.913315E+000  1.026635E+002
 710.0000     -8.804928E-001  1.099312E+002 -3.041508E+001 -1.370805E+002 -3.041262E+001 -1.370707E+002 -2.816124E+000  9.692335E+001
 715.0000     -8.186502E-001  1.073280E+002 -3.209255E+001 -1.403693E+002 -3.209503E+001 -1.403593E+002 -2.719433E+000  9.141137E+001
 720.0000     -7.637478E-001  1.048517E+002 -3.382293E+001 -1.433828E+002 -3.382027E+001 -1.433903E+002 -2.624991E+000  8.611327E+001
 725.0000     -7.130411E-001  1.024986E+002 -3.560221E+001 -1.461495E+002 -3.559654E+001 -1.462038E+002 -2.536904E+000  8.102308E+001
 730.0000     -6.689950E-001  1.002600E+002 -3.744710E+001 -1.485358E+002 -3.744571E+001 -1.485703E+002 -2.453869E+000  7.612538E+001
 735.0000     -6.279466E-001  9.811036E+001 -3.935928E+001 -1.506099E+002 -3.936147E+001 -1.506643E+002 -2.371621E+000  7.143085E+001
 740.0000     -5.920923E-001  9.604894E+001 -4.135844E+001 -1.522670E+002 -4.135928E+001 -1.523788E+002 -2.285780E+000  6.691595E+001
 745.0000     -5.562429E-001  9.406551E+001 -4.347454E+001 -1.533338E+002 -4.346869E+001 -1.533638E+002 -2.201657E+000  6.257145E+001
 750.0000     -5.202814E-001  9.215650E+001 -4.570288E+001 -1.536561E+002 -4.574174E+001 -1.536904E+002 -2.123619E+000  5.836374E+001
 755.0000     -4.850293E-001  9.030777E+001 -4.813458E+001 -1.529527E+002 -4.812120E+001 -1.531328E+002 -2.052895E+000  5.429464E+001
 760.0000     -4.545910E-001  8.851279E+001 -5.074822E+001 -1.507529E+002 -5.075134E+001 -1.508839E+002 -1.985593E+000  5.036917E+001
 765.0000     -4.337194E-001  8.676223E+001 -5.364034E+001 -1.458869E+002 -5.365027E+001 -1.455797E+002 -1.917240E+000  4.659290E+001
 770.0000     -4.140744E-001  8.506495E+001 -5.668534E+001 -1.362122E+002 -5.671824E+001 -1.360796E+002 -1.850502E+000  4.295277E+001
 775.0000     -3.949112E-001  8.343839E+001 -5.945040E+001 -1.192495E+002 -5.955957E+001 -1.189896E+002 -1.785009E+000  3.942503E+001
 780.0000     -3.697407E-001  8.186394E+001 -6.107029E+001 -9.472053E+001 -6.106134E+001 -9.476584E+001 -1.721843E+000  3.600832E+001
 785.0000     -3.414091E-001  8.033817E+001 -6.093767E+001 -7.242498E+001 -6.080486E+001 -7.192071E+001 -1.660868E+000  3.272236E+001
 790.0000     -3.098293E-001  7.882958E+001 -5.972558E+001 -5.812966E+001 -5.967852E+001 -5.834844E+001 -1.602263E+000  2.956047E+001
 795.0000     -2.811480E-001  7.736114E+001 -5.866685E+001 -4.988620E+001 -5.850927E+001 -5.011230E+001 -1.544836E+000  2.651481E+001
 800.0000     -2.570779E-001  7.594206E+001 -5.763186E+001 -4.585844E+001 -5.766919E+001 -4.582177E+001 -1.490550E+000  2.356039E+001
 805.0000     -2.373252E-001  7.456995E+001 -5.696212E+001 -4.325210E+001 -5.697942E+001 -4.368059E+001 -1.438649E+000  2.069969E+001
 810.0000     -2.158304E-001  7.325493E+001 -5.647907E+001 -4.253716E+001 -5.651978E+001 -4.282792E+001 -1.388401E+000  1.792154E+001
 815.0000     -1.905755E-001  7.196715E+001 -5.605822E+001 -4.233170E+001 -5.614056E+001 -4.247097E+001 -1.336967E+000  1.523730E+001
 820.0000     -1.632447E-001  7.070604E+001 -5.595937E+001 -4.297910E+001 -5.586348E+001 -4.283235E+001 -1.289492E+000  1.263385E+001
 825.0000     -1.439636E-001  6.943308E+001 -5.583549E+001 -4.324505E+001 -5.577392E+001 -4.358191E+001 -1.245111E+000  1.011204E+001
 830.0000     -1.298770E-001  6.817099E+001 -5.567541E+001 -4.450147E+001 -5.569872E+001 -4.443945E+001 -1.204369E+000  7.666066E+000
 835.0000     -1.174136E-001  6.695931E+001 -5.566443E+001 -4.581746E+001 -5.573308E+001 -4.564542E+001 -1.163728E+000  5.296131E+000
 840.0000     -9.894615E-002  6.581838E+001 -5.565593E+001 -4.692649E+001 -5.572881E+001 -4.698808E+001 -1.123015E+000  3.001030E+000
 845.0000     -8.075346E-002  6.470683E+001 -5.573473E+001 -4.820607E+001 -5.577547E+001 -4.824281E+001 -1.084252E+000  7.649956E-001
 850.0000     -6.503635E-002  6.359217E+001 -5.593381E+001 -4.994897E+001 -5.580885E+001 -4.978949E+001 -1.046985E+000 -1.418425E+000
 855.0000     -5.409243E-002  6.246404E+001 -5.597182E+001 -5.103649E+001 -5.597073E+001 -5.112072E+001 -1.014498E+000 -3.552295E+000
 860.0000     -4.267250E-002  6.134726E+001 -5.612549E+001 -5.270456E+001 -5.610203E+001 -5.279857E+001 -9.841860E-001 -5.638735E+000
 865.0000     -3.119270E-002  6.027499E+001 -5.625530E+001 -5.440654E+001 -5.619718E+001 -5.448929E+001 -9.575935E-001 -7.675716E+000
 870.0000     -2.147215E-002  5.923970E+001 -5.631047E+001 -5.615649E+001 -5.634245E+001 -5.605592E+001 -9.318272E-001 -9.659188E+000
 875.0000     -1.576568E-002  5.822763E+001 -5.650077E+001 -5.809322E+001 -5.650209E+001 -5.753797E+001 -9.051632E-001 -1.157907E+001
 880.0000     -1.289020E-002  5.723250E+001 -5.666504E+001 -5.939723E+001 -5.664767E+001 -5.918829E+001 -8.771120E-001 -1.344811E+001
 885.0000     -6.574513E-003  5.623697E+001 -5.677962E+001 -6.035171E+001 -5.678691E+001 -6.091595E+001 -8.492996E-001 -1.526599E+001
 890.0000      5.602839E-003  5.524129E+001 -5.695741E+001 -6.269640E+001 -5.691307E+001 -6.279913E+001 -8.245428E-001 -1.704514E+001
 895.0000      2.299107E-002  5.426292E+001 -5.708380E+001 -6.371872E+001 -5.703007E+001 -6.434699E+001 -8.032488E-001 -1.877824E+001
 900.0000      3.961964E-002  5.334236E+001 -5.709776E+001 -6.577000E+001 -5.710391E+001 -6.599483E+001 -7.832709E-001 -2.046874E+001
 920.0000      7.780776E-002  4.980244E+001 -5.747174E+001 -7.122427E+001 -5.751722E+001 -7.141500E+001 -7.011860E-001 -2.687160E+001
 940.0000      9.760377E-002  4.632188E+001 -5.788926E+001 -7.706146E+001 -5.785406E+001 -7.725349E+001 -6.334217E-001 -3.266926E+001
 960.0000      1.101271E-001  4.298915E+001 -5.810655E+001 -8.257407E+001 -5.811367E+001 -8.231082E+001 -5.710052E-001 -3.804108E+001
 980.0000      1.103468E-001  3.984151E+001 -5.841395E+001 -8.650483E+001 -5.849124E+001 -8.632521E+001 -5.324081E-001 -4.308694E+001
1000.0000      1.179566E-001  3.685096E+001 -5.882121E+001 -9.009936E+001 -5.881489E+001 -9.004398E+001 -4.927051E-001 -4.765631E+001
1020.0000      1.601624E-001  3.414539E+001 -5.918068E+001 -9.310905E+001 -5.914988E+001 -9.297174E+001 -4.588318E-001 -5.195858E+001
1040.0000      2.259963E-001  3.163040E+001 -5.971028E+001 -9.575105E+001 -5.973339E+001 -9.554517E+001 -4.287916E-001 -5.588413E+001
1060.0000      2.543860E-001  2.925358E+001 -6.037631E+001 -9.793468E+001 -6.039226E+001 -9.797543E+001 -4.025922E-001 -5.965244E+001
1080.0000      2.527258E-001  2.664549E+001 -6.131823E+001 -1.001230E+002 -6.134893E+001 -9.979926E+001 -3.787611E-001 -6.315688E+001
1100.0000      2.259452E-001  2.408573E+001 -6.244509E+001 -1.010346E+002 -6.249178E+001 -1.007109E+002 -3.722662E-001 -6.648988E+001
1120.0000      2.111141E-001  2.166355E+001 -6.409924E+001 -9.932356E+001 -6.415358E+001 -9.976083E+001 -3.559480E-001 -6.960836E+001
1140.0000      2.360443E-001  1.934534E+001 -6.605811E+001 -9.767168E+001 -6.603391E+001 -9.732610E+001 -3.351471E-001 -7.246376E+001
1160.0000      2.822618E-001  1.723485E+001 -6.877505E+001 -9.080897E+001 -6.901571E+001 -9.170279E+001 -3.162076E-001 -7.520965E+001
1180.0000      3.247462E-001  1.520579E+001 -7.288575E+001 -7.318719E+001 -7.251167E+001 -7.367243E+001 -2.994449E-001 -7.777837E+001
1200.0000      3.072809E-001  1.295876E+001 -7.411726E+001 -2.402067E+001 -7.429140E+001 -2.612599E+001 -2.836520E-001 -8.030726E+001
1220.0000      2.749556E-001  1.090700E+001 -7.125037E+001  1.106754E+001 -7.138188E+001  1.081953E+001 -2.831908E-001 -8.269474E+001
1240.0000      2.450369E-001  8.828474E+000 -6.711286E+001  2.586763E+001 -6.712141E+001  2.445104E+001 -2.740994E-001 -8.491387E+001
1260.0000      2.424828E-001  7.007111E+000 -6.406509E+001  3.100093E+001 -6.418504E+001  3.149281E+001 -2.627233E-001 -8.705357E+001
1280.0000      2.772477E-001  5.265063E+000 -6.171215E+001  3.345981E+001 -6.182533E+001  3.311206E+001 -2.530794E-001 -8.909924E+001
1300.0000      3.002938E-001  3.540057E+000 -5.991956E+001  3.429915E+001 -5.993724E+001  3.399712E+001 -2.419523E-001 -9.105187E+001
1320.0000      2.967970E-001  1.804030E+000 -5.835220E+001  3.426723E+001 -5.835401E+001  3.374144E+001 -2.435895E-001 -9.297688E+001
1340.0000      2.636609E-001 -6.182257E-003 -5.706955E+001  3.313517E+001 -5.705982E+001  3.355853E+001 -2.357234E-001 -9.478092E+001
1360.0000      2.429608E-001 -1.652760E+000 -5.594290E+001  3.328028E+001 -5.588089E+001  3.292837E+001 -2.273119E-001 -9.647473E+001
1380.0000      2.406621E-001 -3.113845E+000 -5.491677E+001  3.220454E+001 -5.488227E+001  3.223977E+001 -2.214136E-001 -9.813912E+001
1400.0000      2.676502E-001 -4.568778E+000 -5.396806E+001  3.097587E+001 -5.398717E+001  3.147543E+001 -2.104252E-001 -9.980798E+001
1420.0000      2.726763E-001 -6.041189E+000 -5.317950E+001  3.055132E+001 -5.314496E+001  3.040065E+001 -2.055809E-001 -1.013828E+002
1440.0000      2.620231E-001 -7.526309E+000 -5.239958E+001  2.932117E+001 -5.243375E+001  2.909619E+001 -2.075795E-001 -1.028767E+002
1460.0000      2.388854E-001 -9.225337E+000 -5.177564E+001  2.796690E+001 -5.172898E+001  2.798673E+001 -2.011789E-001 -1.043636E+002
1480.0000      2.153352E-001 -1.074584E+001 -5.120922E+001  2.690329E+001 -5.116617E+001  2.714184E+001 -2.013520E-001 -1.056900E+002
1500.0000      2.256228E-001 -1.213972E+001 -5.061817E+001  2.587327E+001 -5.065042E+001  2.604692E+001 -1.898067E-001 -1.070494E+002
1520.0000      2.490195E-001 -1.352514E+001 -5.007893E+001  2.500611E+001 -5.009318E+001  2.515194E+001 -1.804357E-001 -1.083973E+002
1540.0000      2.622008E-001 -1.483001E+001 -4.962195E+001  2.392814E+001 -4.961414E+001  2.388713E+001 -1.736827E-001 -1.097393E+002
1560.0000      2.453277E-001 -1.612681E+001 -4.919921E+001  2.286155E+001 -4.918003E+001  2.280236E+001 -1.728445E-001 -1.109696E+002
1580.0000      2.214198E-001 -1.749839E+001 -4.879383E+001  2.171980E+001 -4.880801E+001  2.174824E+001 -1.718382E-001 -1.121543E+002
1600.0000      2.056496E-001 -1.886514E+001 -4.843036E+001  2.068293E+001 -4.844275E+001  2.066017E+001 -1.677824E-001 -1.132838E+002
1620.0000      1.996414E-001 -2.014124E+001 -4.810776E+001  1.981010E+001 -4.809181E+001  1.971825E+001 -1.646740E-001 -1.143681E+002
1640.0000      2.107746E-001 -2.146775E+001 -4.778185E+001  1.875283E+001 -4.776435E+001  1.870383E+001 -1.629955E-001 -1.155343E+002
1660.0000      2.154356E-001 -2.273499E+001 -4.748758E+001  1.751756E+001 -4.745883E+001  1.772729E+001 -1.510473E-001 -1.165792E+002
1680.0000      2.068842E-001 -2.389797E+001 -4.721757E+001  1.664173E+001 -4.720838E+001  1.659582E+001 -1.552813E-001 -1.176245E+002
1700.0000      1.818239E-001 -2.507346E+001 -4.700027E+001  1.591307E+001 -4.696573E+001  1.580996E+001 -1.478566E-001 -1.185829E+002
1720.0000      1.817061E-001 -2.624126E+001 -4.673401E+001  1.504923E+001 -4.673116E+001  1.492124E+001 -1.556203E-001 -1.195510E+002
1740.0000      1.814598E-001 -2.741712E+001 -4.651480E+001  1.418031E+001 -4.648547E+001  1.404443E+001 -1.410817E-001 -1.205294E+002
1760.0000      1.958497E-001 -2.853143E+001 -4.628572E+001  1.306088E+001 -4.629635E+001  1.315645E+001 -1.501886E-001 -1.214092E+002
1780.0000      1.971106E-001 -2.971889E+001 -4.608952E+001  1.217816E+001 -4.609377E+001  1.210199E+001 -1.411268E-001 -1.223190E+002
1800.0000      2.052069E-001 -3.082908E+001 -4.592148E+001  1.133492E+001 -4.589423E+001  1.132582E+001 -1.326803E-001 -1.231811E+002
1820.0000      2.018714E-001 -3.182974E+001 -4.576548E+001  1.045640E+001 -4.573703E+001  1.045076E+001 -1.420786E-001 -1.240551E+002
