# Hz S RI R 50
100000000	-0.743587648	-0.162941104
100247647	-0.733433856	-0.160485952
100495294	-0.734321472	-0.159111376
100742942	-0.73524448	-0.158918064
100990589	-0.7357088	-0.15858768
101238236	-0.736734144	-0.158125536
101485884	-0.738207232	-0.157716784
101733531	-0.739090752	-0.156572512
101981178	-0.73957728	-0.156531312
102228826	-0.740809024	-0.156284304
102476473	-0.7414944	-0.155442592
102724120	-0.742539392	-0.15532984
102971768	-0.742526848	-0.154248464
103219415	-0.743163328	-0.153929904
103467062	-0.74424192	-0.153088544
103714710	-0.744416192	-0.15238256
103962357	-0.745318784	-0.15217688
104210004	-0.746162176	-0.151076624
104457652	-0.746421248	-0.150817328
104705299	-0.746838464	-0.149829424
104952947	-0.748245184	-0.150507216
105200594	-0.748433408	-0.1486072
105448241	-0.748622592	-0.147951952
105695889	-0.74945152	-0.147871472
105943536	-0.749654656	-0.147280992
106191183	-0.75019392	-0.146462752
106438831	-0.75063232	-0.14597344
106686478	-0.751059328	-0.145323552
106934125	-0.751432448	-0.145033376
107181773	-0.752418304	-0.144362336
107429420	-0.752693504	-0.143712304
107677067	-0.753157248	-0.143648
107924715	-0.752289536	-0.142807984
108172362	-0.752623424	-0.142226848
108420009	-0.75276576	-0.141566544
108667657	-0.75353856	-0.140819872
108915304	-0.753762816	-0.140556752
109162951	-0.753350592	-0.13947824
109410599	-0.754144192	-0.13885888
109658246	-0.754118336	-0.138544896
109905894	-0.754656192	-0.13785952
110153541	-0.754142464	-0.137306576
110401188	-0.754472512	-0.136700016
110648836	-0.754970688	-0.136473168
110896483	-0.75543136	-0.13557712
111144130	-0.755851392	-0.13575184
111391778	-0.75634048	-0.135003312
111639425	-0.756636992	-0.134211272
111887072	-0.757031424	-0.13369952
112134720	-0.758058176	-0.133266408
112382367	-0.758007616	-0.132899792
112630014	-0.758807424	-0.132779272
112877662	-0.758129472	-0.131782504
113125309	-0.758468416	-0.131449568
113372956	-0.758553024	-0.130600232
113620604	-0.758694784	-0.1300198
113868251	-0.758621632	-0.129553704
114115898	-0.758479872	-0.129165752
114363546	-0.758554752	-0.12844324
114611193	-0.758900672	-0.127870384
114858841	-0.759456832	-0.127522696
115106488	-0.759201984	-0.126784984
115354135	-0.759641792	-0.126263992
115601783	-0.760161536	-0.126085088
115849430	-0.760343168	-0.125355896
116097077	-0.760829248	-0.124782584
116344725	-0.761322496	-0.12482076
116592372	-0.761339008	-0.123927464
116840019	-0.761927872	-0.12333344
117087667	-0.762182016	-0.123060824
117335314	-0.762769152	-0.1226428
117582961	-0.762891264	-0.12233704
117830609	-0.762731584	-0.121755544
118078256	-0.762999936	-0.121081056
118325903	-0.76284544	-0.12068484
118573551	-0.763211392	-0.12025016
118821198	-0.763137152	-0.119734984
119068845	-0.76314912	-0.119189256
119316493	-0.763310208	-0.11847188
119564140	-0.763394688	-0.118117072
119811788	-0.76389024	-0.117772928
120059435	-0.763443712	-0.11720372
120307082	-0.763632896	-0.116373456
120554730	-0.764443136	-0.116434168
120802377	-0.764458688	-0.115558536
121050024	-0.764768576	-0.115361144
121297672	-0.76534784	-0.114731824
121545319	-0.765577152	-0.11406304
121792966	-0.76582432	-0.11359232
122040614	-0.766564032	-0.113451112
122288261	-0.766812416	-0.112861728
122535908	-0.767363328	-0.112640176
122783556	-0.766567232	-0.11205816
123031203	-0.766565376	-0.111506192
123278850	-0.766724736	-0.11100908
123526498	-0.767023296	-0.110320936
123774145	-0.767174272	-0.11004984
124021792	-0.767149888	-0.109379768
124269440	-0.767061248	-0.1086382
124517087	-0.76721696	-0.108116104
124764735	-0.767587136	-0.10829556
125012382	-0.767436032	-0.107201728
125260029	-0.767447936	-0.106752008
125507677	-0.767975168	-0.106708408
125755324	-0.76829472	-0.106096264
126002971	-0.768749504	-0.105905424
126250619	-0.768812864	-0.105473208
126498266	-0.76892256	-0.104820736
126745913	-0.769215168	-0.104168944
126993561	-0.770011008	-0.103959448
127241208	-0.769993344	-0.103487456
127488855	-0.770543936	-0.103106192
127736503	-0.770095488	-0.102701384
127984150	-0.770120832	-0.102310336
128231797	-0.770128512	-0.10171228
128479445	-0.770167552	-0.101238624
128727092	-0.770305152	-0.100947928
128974739	-0.770509248	-0.100421656
129222387	-0.770494016	-0.099934048
129470034	-0.770422912	-0.099342536
129717682	-0.770783936	-0.09915076
129965329	-0.770320512	-0.098576008
130212976	-0.761541376	-0.097879488
130460624	-0.76248032	-0.09782268
130708271	-0.76349248	-0.096923384
130955918	-0.763639168	-0.096341368
131203566	-0.764596992	-0.096019216
131451213	-0.764916672	-0.095411864
131698860	-0.765816064	-0.095370576
131946508	-0.766817408	-0.09440932
132194155	-0.767544192	-0.094415592
132441802	-0.768250496	-0.093714752
132689450	-0.76812256	-0.093791488
132937097	-0.768672768	-0.093093816
133184744	-0.769490816	-0.092904456
133432392	-0.769705024	-0.092610496
133680039	-0.770323008	-0.091882008
133927686	-0.770557696	-0.091657816
134175334	-0.771472256	-0.091013424
134422981	-0.771764864	-0.090722496
134670629	-0.77260256	-0.090317584
134918276	-0.772293312	-0.089640416
135165923	-0.772612288	-0.089049288
135413571	-0.773139456	-0.088976632
135661218	-0.773538368	-0.088393128
135908865	-0.773579328	-0.088118888
136156513	-0.774120448	-0.08802136
136404160	-0.774033664	-0.087249672
136651807	-0.774208	-0.086679488
136899455	-0.774744832	-0.086232128
137147102	-0.774952576	-0.086133632
137394749	-0.775478208	-0.085719888
137642397	-0.774941312	-0.08515088
137890044	-0.775120448	-0.085106136
138137691	-0.775325376	-0.084438744
138385339	-0.775438016	-0.08417632
138632986	-0.7751696	-0.08377896
138880633	-0.775103296	-0.08322472
139128281	-0.775352064	-0.082820824
139375928	-0.775071808	-0.08259896
139623576	-0.775326336	-0.082098576
139871223	-0.77531104	-0.08168996
140118870	-0.775049344	-0.08098212
140366518	-0.775499136	-0.081042352
140614165	-0.775505792	-0.080534344
140861812	-0.77596032	-0.080175968
141109460	-0.776182144	-0.079682952
141357107	-0.77659968	-0.079438896
141604754	-0.7764208	-0.078945416
141852402	-0.776879616	-0.078483328
142100049	-0.776847424	-0.077981216
142347696	-0.777178688	-0.077886576
142595344	-0.777029504	-0.07765252
142842991	-0.77701696	-0.077201216
143090638	-0.777078848	-0.076883736
143338286	-0.777006208	-0.07642836
143585933	-0.777089152	-0.076084184
143833580	-0.77709504	-0.075753616
144081228	-0.776505856	-0.075247992
144328875	-0.776786304	-0.074467272
144576523	-0.77692832	-0.074323504
144824170	-0.776705216	-0.073770456
145071817	-0.776614656	-0.073504856
145319465	-0.77667168	-0.073180232
145567112	-0.776971648	-0.07279232
145814759	-0.777397376	-0.072588544
146062407	-0.77741856	-0.072105856
146310054	-0.777517568	-0.071643504
146557701	-0.777756736	-0.071238
146805349	-0.778250368	-0.070932824
147052996	-0.77829024	-0.070504968
147300643	-0.778313344	-0.070211552
147548291	-0.77832096	-0.069944368
147795938	-0.778084608	-0.069568744
148043585	-0.778201344	-0.069387952
148291233	-0.778228288	-0.068713248
148538880	-0.778154752	-0.068314672
148786527	-0.77815104	-0.068083496
149034175	-0.778073984	-0.067507576
149281822	-0.777882624	-0.067094928
149529470	-0.778184704	-0.067001208
149777117	-0.77776768	-0.066394648
150024764	-0.77759104	-0.065968812
150272412	-0.777969792	-0.065637172
150520059	-0.7781696	-0.065519236
150767706	-0.778236224	-0.06529726
151015354	-0.778494144	-0.064849244
151263001	-0.778546944	-0.064437924
151510648	-0.778740736	-0.064203896
151758296	-0.779125056	-0.063642108
152005943	-0.779265024	-0.063189664
152253590	-0.77954624	-0.063089816
152501238	-0.779088768	-0.062914936
152748885	-0.779413248	-0.06270378
152996532	-0.77933152	-0.062381972
153244180	-0.779293504	-0.06191714
153491827	-0.779294464	-0.061634648
153739474	-0.7791568	-0.061373232
153987122	-0.778977088	-0.060848576
154234769	-0.778960256	-0.060397448
154482417	-0.779000256	-0.0602095
154730064	-0.779130816	-0.059694436
154977711	-0.778418688	-0.059307848
155225359	-0.77893952	-0.05921498
155473006	-0.779156416	-0.058678628
155720653	-0.77935904	-0.0585944
155968301	-0.779657536	-0.058133892
156215948	-0.779510976	-0.057741748
156463595	-0.779445312	-0.057337636
156711243	-0.779736128	-0.056891276
156958890	-0.780008704	-0.056377348
157206537	-0.780394048	-0.056343216
157454185	-0.780098752	-0.056118324
157701832	-0.780288256	-0.05578914
157949479	-0.780032512	-0.055290328
158197127	-0.77995904	-0.054970496
158444774	-0.77987744	-0.054775876
158692421	-0.779894592	-0.05438542
158940069	-0.779653952	-0.054017636
159187716	-0.779703616	-0.053555236
159435364	-0.779952704	-0.053189236
159683011	-0.779615232	-0.052992816
159930658	-0.779256576	-0.052445168
160178306	-0.779408512	-0.052392384
160425953	-0.779441024	-0.051945832
160673600	-0.779762432	-0.051752032
160921248	-0.780020864	-0.05135444
161168895	-0.780031744	-0.050900824
161416542	-0.780247872	-0.050247296
161664190	-0.780694272	-0.05013688
161911837	-0.780536832	-0.049761896
162159484	-0.780834496	-0.049381844
162407132	-0.780616192	-0.049298076
162654779	-0.780487936	-0.049084712
162902426	-0.780495872	-0.048619272
163150074	-0.780347456	-0.04835084
163397721	-0.78045216	-0.047978628
163645368	-0.780625792	-0.047583192
163893016	-0.780303296	-0.04731686
164140663	-0.78027744	-0.046861252
164388311	-0.780364864	-0.046621524
164635958	-0.779868224	-0.04626218
164883605	-0.779684352	-0.045909212
165131253	-0.7801344	-0.045791996
165378900	-0.779986688	-0.045484876
165626547	-0.780353088	-0.045179
165874195	-0.780599424	-0.044663748
166121842	-0.78033184	-0.044374028
166369489	-0.780721664	-0.043989264
166617137	-0.780859328	-0.043818532
166864784	-0.78078624	-0.04323182
167112431	-0.781292224	-0.04300344
167360079	-0.780877504	-0.04296722
167607726	-0.781141568	-0.04260132
167855373	-0.78088224	-0.042447892
168103021	-0.780944192	-0.042079884
168350668	-0.781005568	-0.041825432
168598315	-0.780819904	-0.041387704
168845963	-0.78066368	-0.04108736
169093610	-0.78063872	-0.040872208
169341258	-0.780646912	-0.040503628
169588905	-0.780204352	-0.040176572
169836552	-0.78022336	-0.039924592
170084200	-0.78004768	-0.039797508
170331847	-0.780568	-0.039539376
170579494	-0.780547264	-0.0390021
170827142	-0.78063136	-0.038715672
171074789	-0.780817152	-0.038226564
171322436	-0.78080896	-0.037820668
171570084	-0.781367808	-0.03745802
171817731	-0.781093248	-0.037120488
172065378	-0.781283712	-0.0367328
172313026	-0.78129504	-0.036757864
172560673	-0.781230848	-0.036593036
172808320	-0.78138144	-0.03615364
173055968	-0.78114464	-0.03574696
173303615	-0.781076992	-0.035633224
173551263	-0.781204096	-0.035083076
173798910	-0.781109696	-0.034798016
174046557	-0.780883072	-0.034595376
174294205	-0.780757248	-0.034143684
174541852	-0.780659712	-0.033655108
174789499	-0.780408384	-0.03338436
175037147	-0.780357248	-0.033007488
175284794	-0.780720704	-0.03261657
175532441	-0.780847232	-0.03268066
175780089	-0.780869824	-0.032468934
176027736	-0.781201664	-0.031999216
176275383	-0.781413888	-0.03154675
176523031	-0.781194304	-0.031326264
176770678	-0.781247616	-0.030815724
177018325	-0.781864	-0.030503408
177265973	-0.78144416	-0.03030208
177513620	-0.782034432	-0.03009869
177761267	-0.781695872	-0.029754572
178008915	-0.781719744	-0.0292991
178256562	-0.781622336	-0.02904232
178504210	-0.781738304	-0.0289638
178751857	-0.781508992	-0.028365422
178999504	-0.781343488	-0.028269566
179247152	-0.781469056	-0.028069726
179494799	-0.781282944	-0.027576614
179742446	-0.781067712	-0.027293194
179990094	-0.781131968	-0.027140028
180237741	-0.77264096	-0.02851933
180485388	-0.772721216	-0.028465444
180733036	-0.773705472	-0.027700328
180980683	-0.77404192	-0.027282514
181228330	-0.774500096	-0.026952152
181475978	-0.775349632	-0.026719934
181723625	-0.775631808	-0.02608977
181971272	-0.77636352	-0.026038004
182218920	-0.776504832	-0.025765364
182466567	-0.777010752	-0.025460912
182714214	-0.777597824	-0.024882376
182961862	-0.777810048	-0.024714536
183209509	-0.778158144	-0.024194704
183457157	-0.778701952	-0.023516208
183704804	-0.778820032	-0.022890054
183952451	-0.77910272	-0.023127896
184200099	-0.779790592	-0.0228594
184447746	-0.780395072	-0.022263592
184695393	-0.78018176	-0.022214802
184943041	-0.780795968	-0.021586866
185190688	-0.780730496	-0.021377436
185438335	-0.781164288	-0.021136862
185685983	-0.781004736	-0.02053489
185933630	-0.781330496	-0.020417738
186181277	-0.781840576	-0.019844014
186428925	-0.7818016	-0.019600974
186676572	-0.781692736	-0.019531524
186924219	-0.782054336	-0.018677918
187171867	-0.782093952	-0.01876563
187419514	-0.781951936	-0.018654138
187667161	-0.782070528	-0.018155478
187914809	-0.781813696	-0.017909618
188162456	-0.782031744	-0.017391218
188410104	-0.782376704	-0.017062474
188657751	-0.781866752	-0.017152718
188905398	-0.78186496	-0.016903962
189153046	-0.781773504	-0.01638978
189400693	-0.781732736	-0.016087696
189648340	-0.781547008	-0.015842778
189895988	-0.781256512	-0.015300852
190143635	-0.781504192	-0.01543031
190391282	-0.781500416	-0.014979434
190638930	-0.78186208	-0.014786304
190886577	-0.781340288	-0.014153244
191134224	-0.781950208	-0.01397584
191381872	-0.78213792	-0.013624522
191629519	-0.781929856	-0.01332476
191877166	-0.782152384	-0.013253586
192124814	-0.7821264	-0.01278696
192372461	-0.782216768	-0.012685704
192620108	-0.781897792	-0.01244447
192867756	-0.78208224	-0.011940056
193115403	-0.782143488	-0.011800908
193363051	-0.78174208	-0.011363836
193610698	-0.78190336	-0.011289232
193858345	-0.781810944	-0.011019282
194105993	-0.781590144	-0.010601524
194353640	-0.781031936	-0.010519968
194601287	-0.780633792	-0.009939864
194848935	-0.780636096	-0.010013038
195096582	-0.781223552	-0.00938634
195344229	-0.78098656	-0.009205166
195591877	-0.781485632	-0.009239638
195839524	-0.780858752	-0.00854679
196087171	-0.781191552	-0.008128248
196334819	-0.781523904	-0.007975864
196582466	-0.781621376	-0.007330891
196830113	-0.781575168	-0.007293533
197077761	-0.781851712	-0.00714073
197325408	-0.781302528	-0.006834936
197573055	-0.781498048	-0.006310627
197820703	-0.781266816	-0.005996587
198068350	-0.781364544	-0.005827429
198315998	-0.780561152	-0.005193716
198563645	-0.781039936	-0.005095207
198811292	-0.780802048	-0.005179714
199058940	-0.78054592	-0.004741137
199306587	-0.780555968	-0.004519467
199554234	-0.780362112	-0.004089569
199801882	-0.77984992	-0.003782219
200049529	-0.779885824	-0.00322803
200297176	-0.780347328	-0.003049815
200544824	-0.780668032	-0.003047784
200792471	-0.780380544	-0.002114308
201040118	-0.780699264	-0.001794707
201287766	-0.780683712	-0.001824095
201535413	-0.780361728	-0.001120825
201783060	-0.78083648	-0.000879532
202030708	-0.781217792	-0.000536512
202278355	-0.780528832	-0.000640352
202526002	-0.780501248	-0.000257096
202773650	-0.78009152	0.00034823
203021297	-0.780908928	0.000566388
203268945	-0.780606272	0.000521786
203516592	-0.779765568	0.001093235
203764239	-0.779687808	0.001161148
204011887	-0.779389312	0.001653994
204259534	-0.779550208	0.001897112
204507181	-0.779126784	0.002627046
204754829	-0.779319936	0.002625486
205002476	-0.777801344	0.002767639
205250123	-0.778694592	0.00318399
205497771	-0.778242624	0.003570571
205745418	-0.778503232	0.003911401
205993065	-0.778101248	0.004131528
206240713	-0.778656192	0.004895529
206488360	-0.778078208	0.005301087
206736007	-0.778133504	0.005276307
206983655	-0.77834464	0.005272249
207231302	-0.778256832	0.005468697
207478949	-0.778213696	0.006129466
207726597	-0.777481856	0.006654323
207974244	-0.7776864	0.006534653
208221892	-0.777621824	0.006688154
208469539	-0.776938048	0.006963616
208717186	-0.77644832	0.007281096
208964834	-0.776479936	0.0078191
209212481	-0.776268992	0.008095254
209460128	-0.7757472	0.008016115
209707776	-0.775445376	0.008163041
209955423	-0.774997056	0.008378612
210203070	-0.774956992	0.008291831
210450718	-0.774427584	0.008655926
210698365	-0.774967296	0.009134876
210946012	-0.774420352	0.009089558
211193660	-0.7743856	0.009130254
211441307	-0.7738736	0.00929273
211688954	-0.7740208	0.009283366
211936602	-0.774348416	0.008939214
212184249	-0.774149568	0.009129206
212431896	-0.773395968	0.009310692
212679544	-0.773769344	0.009730256
212927191	-0.773431168	0.009726832
213174839	-0.773922368	0.00936253
213422486	-0.773076096	0.009901602
213670133	-0.77341504	0.009718468
213917781	-0.7729488	0.009721454
214165428	-0.77218336	0.009598404
214413075	-0.772241088	0.009914446
214660723	-0.77239424	0.009362158
214908370	-0.771923648	0.009962544
215156017	-0.772161536	0.009862428
215403665	-0.772344064	0.010038162
215651312	-0.772004096	0.009964224
215898959	-0.771761664	0.010339482
216146607	-0.772289536	0.010119034
216394254	-0.772718528	0.010347024
216641901	-0.77257344	0.010413822
216889549	-0.7725792	0.01021286
217137196	-0.772444992	0.01057134
217384843	-0.771906176	0.010512248
217632491	-0.772862528	0.010490982
217880138	-0.773243456	0.011001216
218127786	-0.772906368	0.010902532
218375433	-0.772491328	0.01103215
218623080	-0.77169312	0.01142161
218870728	-0.773043776	0.011213064
219118375	-0.772454016	0.011211202
219366022	-0.772290368	0.011639538
219613670	-0.772330496	0.011756482
219861317	-0.771728832	0.011645054
220108964	-0.772168192	0.011594942
220356612	-0.772275712	0.012046038
220604259	-0.77218752	0.012046446
220851906	-0.772556352	0.01244967
221099554	-0.772657984	0.012528368
221347201	-0.772171456	0.012500562
221594848	-0.772573632	0.012679578
221842496	-0.772955456	0.012999538
222090143	-0.77237696	0.01317165
222337790	-0.772779008	0.013219246
222585438	-0.772727616	0.013528956
222833085	-0.772689984	0.013592394
223080733	-0.772545152	0.013936148
223328380	-0.773022272	0.014370346
223576027	-0.772665728	0.014171228
223823675	-0.771849856	0.014149034
224071322	-0.772696064	0.01503581
224318969	-0.771552896	0.014585312
224566617	-0.772160832	0.01484131
224814264	-0.772011328	0.015166964
225061911	-0.771222592	0.01525445
225309559	-0.772338816	0.01514308
225557206	-0.772219392	0.015686716
225804853	-0.772071744	0.015936408
226052501	-0.772238848	0.016098528
226300148	-0.771912576	0.016368452
226547795	-0.772478592	0.016372562
226795443	-0.772631936	0.016712448
227043090	-0.772911168	0.016970788
227290737	-0.772288704	0.017167208
227538385	-0.773169664	0.016984014
227786032	-0.773216	0.016982036
228033680	-0.772699072	0.017776624
228281327	-0.773001664	0.017508338
228528974	-0.772309056	0.017872764
228776622	-0.772807232	0.018110856
229024269	-0.772500416	0.018715684
229271916	-0.77190016	0.018581488
229519564	-0.772260928	0.018878016
229767211	-0.771548224	0.018845612
230014858	-0.771778624	0.019112026
230262506	-0.772233664	0.019364346
230510153	-0.771244864	0.01997164
230757800	-0.772202688	0.019942172
231005448	-0.771964224	0.020283742
231253095	-0.771995328	0.020173136
231500742	-0.772735872	0.020789838
231748390	-0.772544576	0.020670544
231996037	-0.772565056	0.02090427
232243684	-0.772876416	0.021008824
232491332	-0.772697088	0.02126198
232738979	-0.772787456	0.021509512
232986627	-0.772752512	0.022009756
233234274	-0.772363328	0.02178058
233481921	-0.771905728	0.02196875
233729569	-0.772627136	0.021896512
233977216	-0.772485056	0.022471692
234224863	-0.772028544	0.022913062
234472511	-0.77159488	0.023045428
234720158	-0.771472768	0.023277276
234967805	-0.771255104	0.02315957
235215453	-0.771500864	0.02314633
235463100	-0.7716032	0.02375738
235710747	-0.771641088	0.023993864
235958395	-0.771588352	0.024429662
236206042	-0.771765632	0.024516534
236453689	-0.771954368	0.024419784
236701337	-0.772174656	0.02480762
236948984	-0.77236768	0.025209744
237196631	-0.772195648	0.024944794
237444279	-0.77276672	0.02545462
237691926	-0.772239296	0.025557532
237939574	-0.772280832	0.02567392
238187221	-0.771870848	0.02601556
238434868	-0.771983872	0.026208322
238682516	-0.771633024	0.026268384
238930163	-0.771942592	0.026638366
239177810	-0.771806784	0.026562166
239425458	-0.771387008	0.026581044
239673105	-0.771372608	0.026758482
239920752	-0.770746304	0.026778276
