# Hz S RI R 50
100000000	-0.743873536	-0.165838496
100049509	-0.73406496	-0.164208832
100099019	-0.73454464	-0.163946896
100148529	-0.734583616	-0.163796592
100198039	-0.734564672	-0.163921776
100247549	-0.73508992	-0.163627408
100297059	-0.735011648	-0.163508672
100346568	-0.734981952	-0.163270432
100396078	-0.735163008	-0.163059632
100445588	-0.735314432	-0.163149168
100495098	-0.735608576	-0.162601632
100544608	-0.735944	-0.162774496
100594118	-0.736333184	-0.162631184
100643628	-0.736201024	-0.162182848
100693137	-0.736608832	-0.162756208
100742647	-0.736761216	-0.162262656
100792157	-0.736892352	-0.16233248
100841667	-0.7372288	-0.162624976
100891177	-0.737521024	-0.162351536
100940687	-0.737208576	-0.162133488
100990197	-0.737459584	-0.162026704
101039706	-0.737828032	-0.16141632
101089216	-0.73860224	-0.161711856
101138726	-0.73809984	-0.161815216
101188236	-0.73848512	-0.161678944
101237746	-0.738508288	-0.161267472
101287256	-0.73900768	-0.161768896
101336766	-0.739469056	-0.161158096
101386275	-0.739215936	-0.161050112
101435785	-0.739791936	-0.160898992
101485295	-0.739548352	-0.161001776
101534805	-0.739816192	-0.160927552
101584315	-0.740382336	-0.160686992
101633825	-0.73996672	-0.160499152
101683334	-0.740149824	-0.160511456
101732844	-0.740311168	-0.160314576
101782354	-0.74075904	-0.159994256
101831864	-0.741134208	-0.160045072
101881374	-0.741222208	-0.16001528
101930884	-0.74126432	-0.160023904
101980394	-0.74096928	-0.159607968
102029903	-0.74154016	-0.15960936
102079413	-0.741611968	-0.159116688
102128923	-0.74192992	-0.159299248
102178433	-0.741901952	-0.158967968
102227943	-0.74172416	-0.159327104
102277453	-0.74203232	-0.15922696
102326963	-0.742313856	-0.159130896
102376472	-0.74273792	-0.15871536
102425982	-0.74298688	-0.158443952
102475492	-0.74260192	-0.158608992
102525002	-0.742735616	-0.158443136
102574512	-0.743271424	-0.158459296
102624022	-0.742755776	-0.157829472
102673532	-0.743320448	-0.158321952
102723041	-0.743224064	-0.158031248
102772551	-0.743823296	-0.158107296
102822061	-0.743549504	-0.157845264
102871571	-0.744284672	-0.157842016
102921081	-0.74428928	-0.157712976
102970591	-0.74413696	-0.157442768
103020101	-0.74441728	-0.15706272
103069610	-0.744524224	-0.157155712
103119120	-0.744488704	-0.156922256
103168630	-0.745120768	-0.156882
103218140	-0.745477824	-0.15680168
103267650	-0.745217216	-0.156473552
103317160	-0.745568512	-0.156770336
103366669	-0.745633088	-0.15665328
103416179	-0.745521024	-0.15653896
103465689	-0.74581568	-0.156707712
103515199	-0.746245824	-0.156241312
103564709	-0.745946496	-0.156076144
103614219	-0.746655168	-0.156180352
103663729	-0.745920896	-0.155509216
103713238	-0.746273344	-0.156022224
103762748	-0.746772608	-0.15569968
103812258	-0.746393408	-0.15540088
103861768	-0.746678784	-0.15544936
103911278	-0.747192384	-0.15512568
103960788	-0.74682336	-0.154778592
104010298	-0.746829568	-0.155202752
104059807	-0.746954176	-0.154678448
104109317	-0.747278016	-0.155063264
104158827	-0.746961728	-0.154009952
104208337	-0.747301696	-0.154067888
104257847	-0.74731776	-0.154016336
104307357	-0.74771808	-0.15398984
104356867	-0.747442496	-0.154164368
104406376	-0.747631424	-0.154037376
104455886	-0.74805632	-0.154073424
104505396	-0.748385408	-0.153694192
104554906	-0.747951168	-0.153447936
104604416	-0.748171392	-0.153492496
104653926	-0.74810848	-0.153703104
104703435	-0.749049984	-0.15321512
104752945	-0.748660224	-0.153486928
104802455	-0.748958656	-0.152763456
104851965	-0.749164736	-0.152795856
104901475	-0.748915648	-0.152810736
104950985	-0.748967616	-0.153289952
105000495	-0.749482752	-0.152327344
105050004	-0.749638592	-0.15209152
105099514	-0.749780416	-0.152092752
105149024	-0.749960512	-0.151897456
105198534	-0.749814144	-0.152005968
105248044	-0.749611456	-0.151964384
105297554	-0.749951168	-0.151807392
105347064	-0.749952448	-0.151760064
105396573	-0.750202304	-0.151619904
105446083	-0.750083968	-0.15138056
105495593	-0.750308224	-0.151433568
105545103	-0.750297728	-0.151027344
105594613	-0.750596608	-0.150932832
105644123	-0.75115904	-0.150816192
105693633	-0.750881792	-0.150995232
105743142	-0.750965504	-0.150807104
105792652	-0.751046272	-0.150711648
105842162	-0.751244736	-0.150343152
105891672	-0.75077728	-0.150627664
105941182	-0.751631232	-0.150144224
105990692	-0.751446464	-0.15050536
106040202	-0.75148608	-0.149784176
106089711	-0.752050752	-0.150228832
106139221	-0.752094976	-0.150114592
106188731	-0.752048384	-0.150083952
106238241	-0.752170496	-0.149855696
106287751	-0.75239712	-0.149780112
106337261	-0.75220096	-0.149584496
106386770	-0.752617664	-0.149543952
106436280	-0.752541504	-0.149364928
106485790	-0.752588672	-0.14932304
106535300	-0.75250304	-0.149098928
106584810	-0.752595584	-0.149188016
106634320	-0.753075648	-0.148949696
106683830	-0.752735104	-0.14858056
106733339	-0.752619776	-0.1484688
106782849	-0.752710848	-0.148582144
106832359	-0.752975104	-0.148275568
106881869	-0.752804608	-0.148083872
106931379	-0.75276736	-0.147920576
106980889	-0.753536832	-0.147962784
107030399	-0.753034752	-0.147894864
107079908	-0.753020288	-0.147550512
107129418	-0.753299776	-0.147625744
107178928	-0.753342336	-0.147605344
107228438	-0.753279872	-0.147254992
107277948	-0.753556928	-0.147288368
107327458	-0.753490816	-0.147290208
107376968	-0.753675648	-0.147279296
107426477	-0.753406144	-0.147005648
107475987	-0.754079616	-0.1468272
107525497	-0.753631296	-0.146901776
107575007	-0.753589376	-0.146579344
107624517	-0.753835584	-0.146502976
107674027	-0.753902464	-0.146161744
107723536	-0.753769664	-0.146254528
107773046	-0.754240832	-0.146161648
107822556	-0.754004864	-0.145783744
107872066	-0.754213952	-0.146097696
107921576	-0.754003776	-0.14578328
107971086	-0.754088192	-0.14559304
108020596	-0.754258944	-0.1454776
108070105	-0.754383808	-0.145469808
108119615	-0.75440064	-0.145403744
108169125	-0.754369152	-0.145407424
108218635	-0.754627904	-0.145089936
108268145	-0.754870272	-0.145207296
108317655	-0.75453408	-0.144914224
108367165	-0.754629696	-0.144619632
108416674	-0.754785152	-0.14457688
108466184	-0.755138624	-0.144324672
108515694	-0.754881728	-0.144599376
108565204	-0.755221184	-0.144418992
108614714	-0.75491072	-0.143840736
108664224	-0.754891136	-0.144160352
108713734	-0.755106752	-0.143987568
108763243	-0.754953536	-0.143887888
108812753	-0.754953472	-0.143837568
108862263	-0.754438208	-0.143638464
108911773	-0.754873408	-0.143180912
108961283	-0.754969408	-0.143023824
109010793	-0.75518368	-0.143013744
109060303	-0.755196288	-0.143230112
109109812	-0.755309184	-0.142872192
109159322	-0.755081728	-0.142485264
109208832	-0.7547888	-0.142788416
109258342	-0.754966464	-0.142502816
109307852	-0.75508512	-0.14212896
109357362	-0.7549248	-0.142182
109406871	-0.755069184	-0.141825216
109456381	-0.755349184	-0.142152704
109505891	-0.755486784	-0.141656912
109555401	-0.755191296	-0.141786736
109604911	-0.755324992	-0.141587344
109654421	-0.755260224	-0.141629696
109703931	-0.755451968	-0.141526064
109753440	-0.754929984	-0.141204832
109802950	-0.755285952	-0.141099776
109852460	-0.755600704	-0.140858704
109901970	-0.755624832	-0.140811136
109951480	-0.75556288	-0.140753584
110000990	-0.755471808	-0.140495792
110050500	-0.755769792	-0.140380864
110100009	-0.755760896	-0.14040128
110149519	-0.755892672	-0.140525024
110199029	-0.756030272	-0.1400708
110248539	-0.755822016	-0.139923344
110298049	-0.756143424	-0.139868192
110347559	-0.756113856	-0.139971696
110397069	-0.756215616	-0.139805152
110446578	-0.756369152	-0.139752816
110496088	-0.75628256	-0.139588112
110545598	-0.756429696	-0.139412
110595108	-0.756642816	-0.139420688
110644618	-0.756789184	-0.139256512
110694128	-0.756652608	-0.139248752
110743637	-0.756952128	-0.139168832
110793147	-0.75688192	-0.138771072
110842657	-0.757130048	-0.138949568
110892167	-0.757244992	-0.13854152
110941677	-0.757568256	-0.138850144
110991187	-0.757293632	-0.138501328
111040697	-0.75754976	-0.138484912
111090206	-0.757515392	-0.138633024
111139716	-0.757667392	-0.138287072
111189226	-0.757803136	-0.138425312
111238736	-0.7581472	-0.138425984
111288246	-0.757841856	-0.138143664
111337756	-0.757914816	-0.138174832
111387266	-0.758043584	-0.137896992
111436775	-0.758339136	-0.137864416
111486285	-0.758566464	-0.137680576
111535795	-0.758427136	-0.13754352
111585305	-0.758204736	-0.137289296
111634815	-0.758405824	-0.137418048
111684325	-0.7586032	-0.13755256
111733835	-0.75862304	-0.137219296
111783344	-0.758154304	-0.136975136
111832854	-0.758758464	-0.137053856
111882364	-0.758598656	-0.136716768
111931874	-0.758934848	-0.136573392
111981384	-0.758871232	-0.13649648
112030894	-0.758923648	-0.136581312
112080404	-0.758465408	-0.136132912
112129913	-0.758739776	-0.136163056
112179423	-0.759223296	-0.13591072
112228933	-0.759050432	-0.136087856
112278443	-0.759327936	-0.135846832
112327953	-0.758969152	-0.135812352
112377463	-0.759280512	-0.135755664
112426972	-0.759124864	-0.135628432
112476482	-0.759455616	-0.135258016
112525992	-0.759263424	-0.135389504
112575502	-0.759131392	-0.135194528
112625012	-0.759500352	-0.135098464
112674522	-0.75948576	-0.134965072
112724032	-0.75941504	-0.135082848
112773541	-0.759796416	-0.1348056
112823051	-0.75963968	-0.134821312
112872561	-0.760058432	-0.134704416
112922071	-0.759655168	-0.134585872
112971581	-0.759471936	-0.134286784
113021091	-0.759703872	-0.134279392
113070601	-0.759798912	-0.134297616
113120110	-0.75985088	-0.134211344
113169620	-0.75996448	-0.134174152
113219130	-0.759612736	-0.13408224
113268640	-0.759900544	-0.13388628
113318150	-0.759936896	-0.133735848
113367660	-0.759964352	-0.13369276
113417170	-0.76021248	-0.133474112
113466679	-0.760557632	-0.133541064
113516189	-0.760290432	-0.133561416
113565699	-0.760042816	-0.133058144
113615209	-0.760502016	-0.133247376
113664719	-0.76048544	-0.133135992
113714229	-0.760087104	-0.132707896
113763738	-0.760101824	-0.132489208
113813248	-0.760152832	-0.132632416
113862758	-0.760273728	-0.13248368
113912268	-0.7602704	-0.132413032
113961778	-0.760260608	-0.132310376
114011288	-0.760599232	-0.132195432
114060798	-0.760270464	-0.132122608
114110307	-0.760377856	-0.131681952
114159817	-0.760271232	-0.13166924
114209327	-0.76038912	-0.131639976
114258837	-0.76050464	-0.131705688
114308347	-0.760394752	-0.13127196
114357857	-0.760258624	-0.131407824
114407367	-0.760665152	-0.13148284
114456876	-0.760299968	-0.131354032
114506386	-0.760531648	-0.131126048
114555896	-0.760546432	-0.13094948
114605406	-0.760346752	-0.13070208
114654916	-0.760418112	-0.130655136
114704426	-0.760763648	-0.130556672
114753936	-0.760627264	-0.13032524
114803445	-0.76044864	-0.130128248
114852955	-0.76064736	-0.130421984
114902465	-0.760669504	-0.13007596
114951975	-0.760698368	-0.1300728
115001485	-0.760481088	-0.129810408
115050995	-0.760618432	-0.129602504
115100505	-0.760695936	-0.129831984
115150014	-0.7606416	-0.129753024
115199524	-0.76078176	-0.129377096
115249034	-0.760920064	-0.129344864
115298544	-0.761066944	-0.129349064
115348054	-0.761281344	-0.129335928
115397564	-0.761076992	-0.129248696
115447073	-0.76109824	-0.129045008
115496583	-0.761438144	-0.128952576
115546093	-0.761334208	-0.128647488
115595603	-0.761446848	-0.128754928
115645113	-0.761813056	-0.128623816
115694623	-0.761793536	-0.12835248
115744133	-0.761818688	-0.128427088
115793642	-0.761632832	-0.128266648
115843152	-0.762122368	-0.128329096
115892662	-0.762227584	-0.12838252
115942172	-0.762234176	-0.128192768
115991682	-0.762072832	-0.127912656
116041192	-0.762379968	-0.128020408
116090702	-0.76266368	-0.128066328
116140211	-0.762375616	-0.127631472
116189721	-0.762703872	-0.127797304
116239231	-0.76275776	-0.127683776
116288741	-0.762887616	-0.127421872
116338251	-0.763019776	-0.127352432
116387761	-0.762928576	-0.127357256
116437271	-0.76275392	-0.127230256
116486780	-0.76274304	-0.127063272
116536290	-0.762817024	-0.126868472
116585800	-0.762913344	-0.126717584
116635310	-0.763129408	-0.126725536
116684820	-0.762937536	-0.126505928
116734330	-0.763052672	-0.126590192
116783839	-0.76318112	-0.126522792
116833349	-0.763504	-0.126430344
116882859	-0.763606144	-0.126379552
116932369	-0.763515392	-0.1262584
116981879	-0.763417984	-0.126163184
117031389	-0.763337536	-0.12593272
117080899	-0.763472064	-0.126138704
117130408	-0.763582976	-0.125725328
117179918	-0.763688192	-0.125743048
117229428	-0.763568384	-0.125308808
117278938	-0.763687296	-0.125503736
117328448	-0.763886464	-0.125441416
117377958	-0.763734848	-0.125230328
117427468	-0.763730496	-0.125052272
117476977	-0.763994112	-0.125012248
117526487	-0.763796352	-0.12495436
117575997	-0.763793856	-0.124849944
117625507	-0.763822528	-0.124692568
117675017	-0.764205888	-0.124585968
117724527	-0.764271808	-0.124609528
117774037	-0.764155392	-0.12461752
117823546	-0.764302144	-0.124405888
117873056	-0.764428288	-0.12438168
117922566	-0.764509184	-0.124274928
117972076	-0.764136	-0.124288216
118021586	-0.764410816	-0.124010984
118071096	-0.764365376	-0.123998272
118120606	-0.76456	-0.123909872
118170115	-0.764408	-0.123980488
118219625	-0.764587584	-0.123750688
118269135	-0.76456672	-0.12358996
118318645	-0.764662336	-0.123460056
118368155	-0.764768192	-0.12351472
118417665	-0.764802688	-0.12344612
118467174	-0.764731904	-0.123133624
118516684	-0.764433088	-0.123177864
118566194	-0.764765696	-0.123020176
118615704	-0.764872064	-0.122812104
118665214	-0.764733888	-0.122812312
118714724	-0.76460992	-0.122748368
118764234	-0.764784384	-0.122386504
118813743	-0.764556864	-0.122584552
118863253	-0.764508672	-0.12233736
118912763	-0.764802368	-0.12209336
118962273	-0.76465728	-0.1221156
119011783	-0.764839168	-0.121814792
119061293	-0.764921984	-0.121810264
119110803	-0.765026688	-0.121809672
119160312	-0.764446528	-0.121606624
119209822	-0.764552704	-0.121446184
119259332	-0.76491968	-0.121557752
119308842	-0.764858688	-0.121418656
119358352	-0.7648272	-0.121150552
119407862	-0.764761344	-0.121267032
119457372	-0.764729536	-0.121083496
119506881	-0.764825792	-0.12097104
119556391	-0.764906496	-0.120932512
119605901	-0.76499936	-0.120666312
119655411	-0.764917568	-0.1206348
119704921	-0.76504128	-0.120549808
119754431	-0.76506816	-0.120561104
119803940	-0.765094656	-0.12028284
119853450	-0.764466752	-0.120015944
119902960	-0.764795136	-0.120026672
119952470	-0.764706048	-0.11985384
120001980	-0.764861184	-0.119807864
120051490	-0.764903872	-0.119705296
120101000	-0.765193344	-0.119863896
120150509	-0.764995776	-0.119499832
120200019	-0.765101312	-0.1194042
120249529	-0.7653952	-0.119464032
120299039	-0.76533856	-0.119291472
120348549	-0.76541696	-0.119201704
120398059	-0.765292416	-0.11891892
120447569	-0.765382656	-0.119023536
120497078	-0.765434688	-0.118966032
120546588	-0.765831744	-0.118636576
120596098	-0.765811584	-0.118671592
120645608	-0.766096448	-0.118588712
120695118	-0.766052608	-0.118626816
120744628	-0.766036736	-0.118471456
120794138	-0.766080128	-0.118321456
120843647	-0.76606688	-0.118478704
120893157	-0.766132544	-0.118159432
120942667	-0.76632448	-0.118260496
120992177	-0.766643904	-0.118076728
121041687	-0.766493056	-0.117994176
121091197	-0.766791232	-0.117978112
121140707	-0.766601088	-0.117630176
121190216	-0.76680384	-0.117566048
121239726	-0.766822912	-0.117722352
121289236	-0.766921984	-0.11765492
121338746	-0.766808704	-0.117467856
121388256	-0.766821312	-0.117161384
121437766	-0.767084416	-0.116915584
121487275	-0.766974208	-0.11708204
121536785	-0.767242048	-0.116815136
121586295	-0.767107456	-0.116955768
121635805	-0.766947904	-0.116792176
121685315	-0.76717408	-0.116738696
121734825	-0.767167616	-0.116514576
121784335	-0.76734784	-0.116327952
121833844	-0.767147392	-0.116505664
121883354	-0.7674352	-0.116315752
121932864	-0.767435648	-0.11608748
121982374	-0.76727808	-0.115902816
122031884	-0.767603264	-0.116033608
122081394	-0.767580096	-0.115911592
122130904	-0.767614656	-0.115749456
122180413	-0.767704448	-0.115695672
122229923	-0.767792512	-0.115598416
122279433	-0.767771072	-0.115524968
122328943	-0.76781088	-0.115178896
122378453	-0.76750112	-0.115269576
122427963	-0.767935296	-0.11529216
122477473	-0.76774816	-0.114794288
122526982	-0.767820928	-0.115009592
122576492	-0.76814656	-0.114923608
122626002	-0.767974336	-0.114725144
122675512	-0.768201152	-0.114835696
122725022	-0.767976448	-0.114678528
122774532	-0.76809888	-0.114575576
122824041	-0.768129152	-0.114466552
122873551	-0.76797536	-0.114367144
122923061	-0.7679952	-0.114418952
122972571	-0.768170624	-0.11409832
123022081	-0.76810304	-0.114191872
123071591	-0.768470848	-0.114018448
123121101	-0.768380672	-0.113845728
123170610	-0.768500928	-0.11376988
123220120	-0.768827008	-0.113716744
123269630	-0.768555584	-0.11362288
123319140	-0.768446784	-0.113510248
123368650	-0.768646592	-0.11336464
123418160	-0.768665856	-0.113103152
123467670	-0.768448704	-0.113117176
123517179	-0.76858176	-0.113051608
123566689	-0.768796544	-0.11289668
123616199	-0.76843552	-0.112765328
123665709	-0.768628352	-0.11264608
123715219	-0.768169728	-0.112671176
123764729	-0.768391488	-0.112370448
123814239	-0.768566336	-0.112390968
123863748	-0.76855392	-0.112269416
123913258	-0.76855072	-0.112173568
123962768	-0.768738304	-0.112083984
124012278	-0.768669568	-0.11204404
124061788	-0.768609728	-0.111848752
124111298	-0.768766848	-0.111948136
124160808	-0.76854208	-0.111775256
124210317	-0.768466368	-0.111520584
124259827	-0.768459648	-0.11155156
124309337	-0.768518912	-0.111383496
124358847	-0.768695936	-0.111413232
124408357	-0.768691392	-0.111294184
124457867	-0.76861504	-0.111043168
124507376	-0.768431232	-0.110938344
124556886	-0.768523968	-0.110897024
124606396	-0.768457856	-0.11048732
124655906	-0.768718848	-0.110457424
124705416	-0.76867488	-0.110393616
124754926	-0.768625408	-0.11035584
124804436	-0.76844928	-0.110404416
124853945	-0.76874624	-0.110197056
124903455	-0.76860288	-0.110255512
124952965	-0.768570624	-0.110121464
125002475	-0.768460992	-0.110049216
125051985	-0.768918784	-0.109731344
125101495	-0.768695744	-0.109773504
125151005	-0.768687872	-0.109679528
125200514	-0.768922816	-0.109636528
125250024	-0.768837056	-0.109453048
125299534	-0.7690912	-0.109283712
125349044	-0.768982208	-0.109253256
125398554	-0.769139008	-0.10932552
125448064	-0.769083392	-0.108934552
125497574	-0.769280576	-0.108924728
125547083	-0.769506816	-0.10924672
125596593	-0.769446592	-0.10891596
125646103	-0.769544064	-0.108817296
125695613	-0.769606464	-0.108647856
125745123	-0.769950656	-0.108708104
125794633	-0.769650432	-0.10864624
125844142	-0.769927616	-0.108330368
125893652	-0.77009152	-0.10843848
125943162	-0.769979328	-0.10807256
125992672	-0.770069952	-0.10833736
126042182	-0.770335872	-0.10828048
126091692	-0.770329856	-0.107984112
126141202	-0.77009696	-0.108016552
126190711	-0.770182464	-0.107777256
126240221	-0.7704192	-0.107886224
126289731	-0.770561024	-0.107615
126339241	-0.77049376	-0.107696344
126388751	-0.770548416	-0.1076082
126438261	-0.770479872	-0.107465288
126487771	-0.770771264	-0.10726872
126537280	-0.770400832	-0.107106952
126586790	-0.770706432	-0.107095904
126636300	-0.77080032	-0.107186768
126685810	-0.770909504	-0.1068974
126735320	-0.770693696	-0.106974696
126784830	-0.770902784	-0.106685608
126834340	-0.770877888	-0.106749512
126883849	-0.770800192	-0.106531376
126933359	-0.77091968	-0.106400016
126982869	-0.770898176	-0.1063266
127032379	-0.771069632	-0.106263608
127081889	-0.77115712	-0.106180088
127131399	-0.771330368	-0.106229672
127180909	-0.771144	-0.105960656
127230418	-0.771256448	-0.106031768
127279928	-0.771269696	-0.105621784
127329438	-0.771087616	-0.105662232
127378948	-0.77124928	-0.10567464
127428458	-0.771269568	-0.105403816
127477968	-0.771360064	-0.105501024
127527477	-0.771455552	-0.1054814
127576987	-0.771218496	-0.105350528
127626497	-0.77145056	-0.105113128
127676007	-0.771588416	-0.10518912
127725517	-0.771236736	-0.104858216
127775027	-0.771493376	-0.104906712
